(1700000040.000000) vcan0 0CF00400#F0FFA3A53900FFFF
(1700000040.000000) vcan0 18FEF100#FFD35BFFFFFFFFFF
(1700000040.000000) vcan0 18FEEE00#7DFF002EFFFFFFFF
(1700000040.020000) vcan0 0CF00400#F0FFA39F3900FFFF
(1700000040.040000) vcan0 0CF00400#F0FFA3983900FFFF
(1700000040.060000) vcan0 0CF00400#F0FFA3913900FFFF
(1700000040.080000) vcan0 0CF00400#F0FFA38A3900FFFF
(1700000040.100000) vcan0 0CF00400#F0FFA3833900FFFF
(1700000040.100000) vcan0 18FEF100#FFDD5BFFFFFFFFFF
(1700000040.120000) vcan0 0CF00400#F0FFA37C3900FFFF
(1700000040.140000) vcan0 0CF00400#F0FFA3753900FFFF
(1700000040.160000) vcan0 0CF00400#F0FFA36E3900FFFF
(1700000040.180000) vcan0 0CF00400#F0FFA3663900FFFF
(1700000040.200000) vcan0 0CF00400#F0FFA35E3900FFFF
(1700000040.200000) vcan0 18FEF100#FFE55BFFFFFFFFFF
(1700000040.220000) vcan0 0CF00400#F0FFA3573900FFFF
(1700000040.240000) vcan0 0CF00400#F0FFA34F3900FFFF
(1700000040.260000) vcan0 0CF00400#F0FFA3473900FFFF
(1700000040.280000) vcan0 0CF00400#F0FFA33F3900FFFF
(1700000040.300000) vcan0 0CF00400#F0FFA3373900FFFF
(1700000040.300000) vcan0 18FEF100#FFED5BFFFFFFFFFF
(1700000040.320000) vcan0 0CF00400#F0FFA32E3900FFFF
(1700000040.340000) vcan0 0CF00400#F0FFA3263900FFFF
(1700000040.360000) vcan0 0CF00400#F0FFA31D3900FFFF
(1700000040.380000) vcan0 0CF00400#F0FFA3153900FFFF
(1700000040.400000) vcan0 0CF00400#F0FFA30C3900FFFF
(1700000040.400000) vcan0 18FEF100#FFF35BFFFFFFFFFF
(1700000040.420000) vcan0 0CF00400#F0FFA3043900FFFF
(1700000040.440000) vcan0 0CF00400#F0FFA3FB3800FFFF
(1700000040.460000) vcan0 0CF00400#F0FFA3F23800FFFF
(1700000040.480000) vcan0 0CF00400#F0FFA3E93800FFFF
(1700000040.500000) vcan0 0CF00400#F0FFA3E03800FFFF
(1700000040.500000) vcan0 18FEF100#FFF85BFFFFFFFFFF
(1700000040.500000) vcan0 18FECA00#00FF00000000FFFF
(1700000040.520000) vcan0 0CF00400#F0FFA3D73800FFFF
(1700000040.540000) vcan0 0CF00400#F0FFA3CE3800FFFF
(1700000040.560000) vcan0 0CF00400#F0FFA3C43800FFFF
(1700000040.580000) vcan0 0CF00400#F0FFA3BB3800FFFF
(1700000040.600000) vcan0 0CF00400#F0FFA3B23800FFFF
(1700000040.600000) vcan0 18FEF100#FFFC5BFFFFFFFFFF
(1700000040.620000) vcan0 0CF00400#F0FFA3A93800FFFF
(1700000040.640000) vcan0 0CF00400#F0FFA39F3800FFFF
(1700000040.660000) vcan0 0CF00400#F0FFA3963800FFFF
(1700000040.680000) vcan0 0CF00400#F0FFA38C3800FFFF
(1700000040.700000) vcan0 0CF00400#F0FFA3833800FFFF
(1700000040.700000) vcan0 18FEF100#FFFE5BFFFFFFFFFF
(1700000040.720000) vcan0 0CF00400#F0FFA3793800FFFF
(1700000040.740000) vcan0 0CF00400#F0FFA3703800FFFF
(1700000040.760000) vcan0 0CF00400#F0FFA3663800FFFF
(1700000040.780000) vcan0 0CF00400#F0FFA35D3800FFFF
(1700000040.800000) vcan0 0CF00400#F0FFA3533800FFFF
(1700000040.800000) vcan0 18FEF100#FFFF5BFFFFFFFFFF
(1700000040.820000) vcan0 0CF00400#F0FFA3493800FFFF
(1700000040.840000) vcan0 0CF00400#F0FFA3403800FFFF
(1700000040.860000) vcan0 0CF00400#F0FFA2363800FFFF
(1700000040.880000) vcan0 0CF00400#F0FFA22D3800FFFF
(1700000040.900000) vcan0 0CF00400#F0FFA2233800FFFF
(1700000040.900000) vcan0 18FEF100#FFFF5BFFFFFFFFFF
(1700000040.920000) vcan0 0CF00400#F0FFA2193800FFFF
(1700000040.940000) vcan0 0CF00400#F0FFA2103800FFFF
(1700000040.960000) vcan0 0CF00400#F0FFA2063800FFFF
(1700000040.980000) vcan0 0CF00400#F0FFA2FD3700FFFF
(1700000041.000000) vcan0 0CF00400#F0FFA2F33700FFFF
(1700000041.000000) vcan0 18FEF100#FFFE5BFFFFFFFFFF
(1700000041.000000) vcan0 18FEEE00#7DFF002EFFFFFFFF
(1700000041.020000) vcan0 0CF00400#F0FFA2EA3700FFFF
(1700000041.040000) vcan0 0CF00400#F0FFA2E03700FFFF
(1700000041.060000) vcan0 0CF00400#F0FFA2D73700FFFF
(1700000041.080000) vcan0 0CF00400#F0FFA2CE3700FFFF
(1700000041.100000) vcan0 0CF00400#F0FFA2C43700FFFF
(1700000041.100000) vcan0 18FEF100#FFFB5BFFFFFFFFFF
(1700000041.120000) vcan0 0CF00400#F0FFA2BB3700FFFF
(1700000041.140000) vcan0 0CF00400#F0FFA2B23700FFFF
(1700000041.160000) vcan0 0CF00400#F0FFA2A93700FFFF
(1700000041.180000) vcan0 0CF00400#F0FFA2A03700FFFF
(1700000041.200000) vcan0 0CF00400#F0FFA2973700FFFF
(1700000041.200000) vcan0 18FEF100#FFF75BFFFFFFFFFF
(1700000041.220000) vcan0 0CF00400#F0FFA28E3700FFFF
(1700000041.240000) vcan0 0CF00400#F0FFA2853700FFFF
(1700000041.260000) vcan0 0CF00400#F0FFA27C3700FFFF
(1700000041.280000) vcan0 0CF00400#F0FFA2733700FFFF
(1700000041.300000) vcan0 0CF00400#F0FFA26B3700FFFF
(1700000041.300000) vcan0 18FEF100#FFF25BFFFFFFFFFF
(1700000041.320000) vcan0 0CF00400#F0FFA2623700FFFF
(1700000041.340000) vcan0 0CF00400#F0FFA25A3700FFFF
(1700000041.360000) vcan0 0CF00400#F0FFA2513700FFFF
(1700000041.380000) vcan0 0CF00400#F0FFA2493700FFFF
(1700000041.400000) vcan0 0CF00400#F0FFA2413700FFFF
(1700000041.400000) vcan0 18FEF100#FFEC5BFFFFFFFFFF
(1700000041.420000) vcan0 0CF00400#F0FFA2393700FFFF
(1700000041.440000) vcan0 0CF00400#F0FFA2313700FFFF
(1700000041.460000) vcan0 0CF00400#F0FFA2293700FFFF
(1700000041.480000) vcan0 0CF00400#F0FFA2213700FFFF
(1700000041.500000) vcan0 0CF00400#F0FFA2193700FFFF
(1700000041.500000) vcan0 18FEF100#FFE45BFFFFFFFFFF
(1700000041.500000) vcan0 18FECA00#00FF00000000FFFF
(1700000041.520000) vcan0 0CF00400#F0FFA2123700FFFF
(1700000041.540000) vcan0 0CF00400#F0FFA20B3700FFFF
(1700000041.560000) vcan0 0CF00400#F0FFA2033700FFFF
(1700000041.580000) vcan0 0CF00400#F0FFA2FC3600FFFF
(1700000041.600000) vcan0 0CF00400#F0FFA2F53600FFFF
(1700000041.600000) vcan0 18FEF100#FFDB5BFFFFFFFFFF
(1700000041.620000) vcan0 0CF00400#F0FFA2EE3600FFFF
(1700000041.640000) vcan0 0CF00400#F0FFA2E73600FFFF
(1700000041.660000) vcan0 0CF00400#F0FFA2E13600FFFF
(1700000041.680000) vcan0 0CF00400#F0FFA2DA3600FFFF
(1700000041.700000) vcan0 0CF00400#F0FFA2D43600FFFF
(1700000041.700000) vcan0 18FEF100#FFD15BFFFFFFFFFF
(1700000041.720000) vcan0 0CF00400#F0FFA2CE3600FFFF
(1700000041.740000) vcan0 0CF00400#F0FFA2C83600FFFF
(1700000041.760000) vcan0 0CF00400#F0FFA2C23600FFFF
(1700000041.780000) vcan0 0CF00400#F0FFA2BC3600FFFF
(1700000041.800000) vcan0 0CF00400#F0FFA2B63600FFFF
(1700000041.800000) vcan0 18FEF100#FFC65BFFFFFFFFFF
(1700000041.820000) vcan0 0CF00400#F0FFA2B13600FFFF
(1700000041.840000) vcan0 0CF00400#F0FFA2AC3600FFFF
(1700000041.860000) vcan0 0CF00400#F0FFA2A73600FFFF
(1700000041.880000) vcan0 0CF00400#F0FFA2A23600FFFF
(1700000041.900000) vcan0 0CF00400#F0FFA29D3600FFFF
(1700000041.900000) vcan0 18FEF100#FFB95BFFFFFFFFFF
(1700000041.920000) vcan0 0CF00400#F0FFA2983600FFFF
(1700000041.940000) vcan0 0CF00400#F0FFA2943600FFFF
(1700000041.960000) vcan0 0CF00400#F0FFA2903600FFFF
(1700000041.980000) vcan0 0CF00400#F0FFA28B3600FFFF
(1700000042.000000) vcan0 0CF00400#F0FFA2883600FFFF
(1700000042.000000) vcan0 18FEF100#FFAC5BFFFFFFFFFF
(1700000042.000000) vcan0 18FEEE00#7DFF002EFFFFFFFF
(1700000042.020000) vcan0 0CF00400#F0FFA2843600FFFF
(1700000042.040000) vcan0 0CF00400#F0FFA2803600FFFF
(1700000042.060000) vcan0 0CF00400#F0FFA27D3600FFFF
(1700000042.080000) vcan0 0CF00400#F0FFA27A3600FFFF
(1700000042.100000) vcan0 0CF00400#F0FFA2773600FFFF
(1700000042.100000) vcan0 18FEF100#FF9D5BFFFFFFFFFF
(1700000042.120000) vcan0 0CF00400#F0FFA2743600FFFF
(1700000042.140000) vcan0 0CF00400#F0FFA2713600FFFF
(1700000042.160000) vcan0 0CF00400#F0FFA26F3600FFFF
(1700000042.180000) vcan0 0CF00400#F0FFA26C3600FFFF
(1700000042.200000) vcan0 0CF00400#F0FFA26A3600FFFF
(1700000042.200000) vcan0 18FEF100#FF8E5BFFFFFFFFFF
(1700000042.220000) vcan0 0CF00400#F0FFA2683600FFFF
(1700000042.240000) vcan0 0CF00400#F0FFA2673600FFFF
(1700000042.260000) vcan0 0CF00400#F0FFA2653600FFFF
(1700000042.280000) vcan0 0CF00400#F0FFA2643600FFFF
(1700000042.300000) vcan0 0CF00400#F0FFA2623600FFFF
(1700000042.300000) vcan0 18FEF100#FF7D5BFFFFFFFFFF
(1700000042.320000) vcan0 0CF00400#F0FFA2623600FFFF
(1700000042.340000) vcan0 0CF00400#F0FFA2613600FFFF
(1700000042.360000) vcan0 0CF00400#F0FFA2603600FFFF
(1700000042.380000) vcan0 0CF00400#F0FFA2603600FFFF
(1700000042.400000) vcan0 0CF00400#F0FFA2603600FFFF
(1700000042.400000) vcan0 18FEF100#FF6C5BFFFFFFFFFF
(1700000042.420000) vcan0 0CF00400#F0FFA2603600FFFF
(1700000042.440000) vcan0 0CF00400#F0FFA2603600FFFF
(1700000042.460000) vcan0 0CF00400#F0FFA2603600FFFF
(1700000042.480000) vcan0 0CF00400#F0FFA2613600FFFF
(1700000042.500000) vcan0 0CF00400#F0FFA2613600FFFF
(1700000042.500000) vcan0 18FEF100#FF595BFFFFFFFFFF
(1700000042.500000) vcan0 18FECA00#00FF00000000FFFF
(1700000042.520000) vcan0 0CF00400#F0FFA2623600FFFF
(1700000042.540000) vcan0 0CF00400#F0FFA2633600FFFF
(1700000042.560000) vcan0 0CF00400#F0FFA2653600FFFF
(1700000042.580000) vcan0 0CF00400#F0FFA2663600FFFF
(1700000042.600000) vcan0 0CF00400#F0FFA2683600FFFF
(1700000042.600000) vcan0 18FEF100#FF465BFFFFFFFFFF
(1700000042.620000) vcan0 0CF00400#F0FFA26A3600FFFF
(1700000042.640000) vcan0 0CF00400#F0FFA26C3600FFFF
(1700000042.660000) vcan0 0CF00400#F0FFA26E3600FFFF
(1700000042.680000) vcan0 0CF00400#F0FFA2713600FFFF
(1700000042.700000) vcan0 0CF00400#F0FFA2733600FFFF
(1700000042.700000) vcan0 18FEF100#FF325BFFFFFFFFFF
(1700000042.720000) vcan0 0CF00400#F0FFA2763600FFFF
(1700000042.740000) vcan0 0CF00400#F0FFA2793600FFFF
(1700000042.760000) vcan0 0CF00400#F0FFA27C3600FFFF
(1700000042.780000) vcan0 0CF00400#F0FFA2803600FFFF
(1700000042.800000) vcan0 0CF00400#F0FFA2833600FFFF
(1700000042.800000) vcan0 18FEF100#FF1D5BFFFFFFFFFF
(1700000042.820000) vcan0 0CF00400#F0FFA2873600FFFF
(1700000042.840000) vcan0 0CF00400#F0FFA28B3600FFFF
(1700000042.860000) vcan0 0CF00400#F0FFA28F3600FFFF
(1700000042.880000) vcan0 0CF00400#F0FFA2933600FFFF
(1700000042.900000) vcan0 0CF00400#F0FFA2983600FFFF
(1700000042.900000) vcan0 18FEF100#FF075BFFFFFFFFFF
(1700000042.920000) vcan0 0CF00400#F0FFA29C3600FFFF
(1700000042.940000) vcan0 0CF00400#F0FFA2A13600FFFF
(1700000042.960000) vcan0 0CF00400#F0FFA2A63600FFFF
(1700000042.980000) vcan0 0CF00400#F0FFA2AB3600FFFF
(1700000043.000000) vcan0 0CF00400#F0FFA2B03600FFFF
(1700000043.000000) vcan0 18FEF100#FFF15AFFFFFFFFFF
(1700000043.000000) vcan0 18FEEE00#7DFF002EFFFFFFFF
(1700000043.020000) vcan0 0CF00400#F0FFA2B63600FFFF
(1700000043.040000) vcan0 0CF00400#F0FFA2BB3600FFFF
(1700000043.060000) vcan0 0CF00400#F0FFA2C13600FFFF
(1700000043.080000) vcan0 0CF00400#F0FFA2C73600FFFF
(1700000043.100000) vcan0 0CF00400#F0FFA2CD3600FFFF
(1700000043.100000) vcan0 18FEF100#FFDA5AFFFFFFFFFF
(1700000043.120000) vcan0 0CF00400#F0FFA2D33600FFFF
(1700000043.140000) vcan0 0CF00400#F0FFA2D93600FFFF
(1700000043.160000) vcan0 0CF00400#F0FFA2E03600FFFF
(1700000043.180000) vcan0 0CF00400#F0FFA2E63600FFFF
(1700000043.200000) vcan0 0CF00400#F0FFA2ED3600FFFF
(1700000043.200000) vcan0 18FEF100#FFC35AFFFFFFFFFF
(1700000043.220000) vcan0 0CF00400#F0FFA2F43600FFFF
(1700000043.240000) vcan0 0CF00400#F0FFA2FB3600FFFF
(1700000043.260000) vcan0 0CF00400#F0FFA2023700FFFF
(1700000043.280000) vcan0 0CF00400#F0FFA2093700FFFF
(1700000043.300000) vcan0 0CF00400#F0FFA2113700FFFF
(1700000043.300000) vcan0 18FEF100#FFAB5AFFFFFFFFFF
(1700000043.320000) vcan0 0CF00400#F0FFA2183700FFFF
(1700000043.340000) vcan0 0CF00400#F0FFA2203700FFFF
(1700000043.360000) vcan0 0CF00400#F0FFA2283700FFFF
(1700000043.380000) vcan0 0CF00400#F0FFA2303700FFFF
(1700000043.400000) vcan0 0CF00400#F0FFA2383700FFFF
(1700000043.400000) vcan0 18FEF100#FF925AFFFFFFFFFF
(1700000043.420000) vcan0 0CF00400#F0FFA2403700FFFF
(1700000043.440000) vcan0 0CF00400#F0FFA2483700FFFF
(1700000043.460000) vcan0 0CF00400#F0FFA2503700FFFF
(1700000043.480000) vcan0 0CF00400#F0FFA2583700FFFF
(1700000043.500000) vcan0 0CF00400#F0FFA2613700FFFF
(1700000043.500000) vcan0 18FEF100#FF7A5AFFFFFFFFFF
(1700000043.500000) vcan0 18FECA00#00FF00000000FFFF
(1700000043.520000) vcan0 0CF00400#F0FFA2693700FFFF
(1700000043.540000) vcan0 0CF00400#F0FFA2723700FFFF
(1700000043.560000) vcan0 0CF00400#F0FFA27B3700FFFF
(1700000043.580000) vcan0 0CF00400#F0FFA2843700FFFF
(1700000043.600000) vcan0 0CF00400#F0FFA28C3700FFFF
(1700000043.600000) vcan0 18FEF100#FF615AFFFFFFFFFF
(1700000043.620000) vcan0 0CF00400#F0FFA2953700FFFF
(1700000043.640000) vcan0 0CF00400#F0FFA29E3700FFFF
(1700000043.660000) vcan0 0CF00400#F0FFA2A73700FFFF
(1700000043.680000) vcan0 0CF00400#F0FFA2B13700FFFF
(1700000043.700000) vcan0 0CF00400#F0FFA2BA3700FFFF
(1700000043.700000) vcan0 18FEF100#FF485AFFFFFFFFFF
(1700000043.720000) vcan0 0CF00400#F0FFA2C33700FFFF
(1700000043.740000) vcan0 0CF00400#F0FFA2CC3700FFFF
(1700000043.760000) vcan0 0CF00400#F0FFA2D63700FFFF
(1700000043.780000) vcan0 0CF00400#F0FFA2DF3700FFFF
(1700000043.800000) vcan0 0CF00400#F0FFA2E83700FFFF
(1700000043.800000) vcan0 18FEF100#FF2E5AFFFFFFFFFF
(1700000043.820000) vcan0 0CF00400#F0FFA2F23700FFFF
(1700000043.840000) vcan0 0CF00400#F0FFA2FB3700FFFF
(1700000043.860000) vcan0 0CF00400#F0FFA2053800FFFF
(1700000043.880000) vcan0 0CF00400#F0FFA20E3800FFFF
(1700000043.900000) vcan0 0CF00400#F0FFA2183800FFFF
(1700000043.900000) vcan0 18FEF100#FF155AFFFFFFFFFF
(1700000043.920000) vcan0 0CF00400#F0FFA2223800FFFF
(1700000043.940000) vcan0 0CF00400#F0FFA22B3800FFFF
(1700000043.960000) vcan0 0CF00400#F0FFA2353800FFFF
(1700000043.980000) vcan0 0CF00400#F0FFA23E3800FFFF
(1700000044.000000) vcan0 0CF00400#F0FFA3483800FFFF
(1700000044.000000) vcan0 18FEF100#FFFB59FFFFFFFFFF
(1700000044.020000) vcan0 0CF00400#F0FFA3523800FFFF
(1700000044.040000) vcan0 0CF00400#F0FFA35B3800FFFF
(1700000044.060000) vcan0 0CF00400#F0FFA3653800FFFF
(1700000044.080000) vcan0 0CF00400#F0FFA36E3800FFFF
(1700000044.100000) vcan0 0CF00400#F0FFA3783800FFFF
(1700000044.100000) vcan0 18FEF100#FFE159FFFFFFFFFF
(1700000044.120000) vcan0 0CF00400#F0FFA3813800FFFF
(1700000044.140000) vcan0 0CF00400#F0FFA38B3800FFFF
(1700000044.160000) vcan0 0CF00400#F0FFA3943800FFFF
(1700000044.180000) vcan0 0CF00400#F0FFA39E3800FFFF
(1700000044.200000) vcan0 0CF00400#F0FFA3A73800FFFF
(1700000044.200000) vcan0 18FEF100#FFC859FFFFFFFFFF
(1700000044.220000) vcan0 0CF00400#F0FFA3B13800FFFF
(1700000044.240000) vcan0 0CF00400#F0FFA3BA3800FFFF
(1700000044.260000) vcan0 0CF00400#F0FFA3C33800FFFF
(1700000044.280000) vcan0 0CF00400#F0FFA3CC3800FFFF
(1700000044.300000) vcan0 0CF00400#F0FFA3D53800FFFF
(1700000044.300000) vcan0 18FEF100#FFAF59FFFFFFFFFF
(1700000044.320000) vcan0 0CF00400#F0FFA3DF3800FFFF
(1700000044.340000) vcan0 0CF00400#F0FFA3E83800FFFF
(1700000044.360000) vcan0 0CF00400#F0FFA3F13800FFFF
(1700000044.380000) vcan0 0CF00400#F0FFA3F93800FFFF
(1700000044.400000) vcan0 0CF00400#F0FFA3023900FFFF
(1700000044.400000) vcan0 18FEF100#FF9559FFFFFFFFFF
(1700000044.420000) vcan0 0CF00400#F0FFA30B3900FFFF
(1700000044.440000) vcan0 0CF00400#F0FFA3143900FFFF
(1700000044.460000) vcan0 0CF00400#F0FFA31C3900FFFF
(1700000044.480000) vcan0 0CF00400#F0FFA3253900FFFF
(1700000044.500000) vcan0 0CF00400#F0FFA32D3900FFFF
(1700000044.500000) vcan0 18FEF100#FF7C59FFFFFFFFFF
(1700000044.500000) vcan0 18FECA00#00FF00000000FFFF
(1700000044.520000) vcan0 0CF00400#F0FFA3353900FFFF
(1700000044.540000) vcan0 0CF00400#F0FFA33E3900FFFF
(1700000044.560000) vcan0 0CF00400#F0FFA3463900FFFF
(1700000044.580000) vcan0 0CF00400#F0FFA34E3900FFFF
(1700000044.600000) vcan0 0CF00400#F0FFA3553900FFFF
(1700000044.600000) vcan0 18FEF100#FF6459FFFFFFFFFF
(1700000044.620000) vcan0 0CF00400#F0FFA35D3900FFFF
(1700000044.640000) vcan0 0CF00400#F0FFA3653900FFFF
(1700000044.660000) vcan0 0CF00400#F0FFA36C3900FFFF
(1700000044.680000) vcan0 0CF00400#F0FFA3743900FFFF
(1700000044.700000) vcan0 0CF00400#F0FFA37B3900FFFF
(1700000044.700000) vcan0 18FEF100#FF4C59FFFFFFFFFF
(1700000044.720000) vcan0 0CF00400#F0FFA3823900FFFF
(1700000044.740000) vcan0 0CF00400#F0FFA3893900FFFF
(1700000044.760000) vcan0 0CF00400#F0FFA3903900FFFF
(1700000044.780000) vcan0 0CF00400#F0FFA3973900FFFF
(1700000044.800000) vcan0 0CF00400#F0FFA39E3900FFFF
(1700000044.800000) vcan0 18FEF100#FF3459FFFFFFFFFF
(1700000044.820000) vcan0 0CF00400#F0FFA3A43900FFFF
(1700000044.840000) vcan0 0CF00400#F0FFA3AB3900FFFF
(1700000044.860000) vcan0 0CF00400#F0FFA3B13900FFFF
(1700000044.880000) vcan0 0CF00400#F0FFA3B73900FFFF
(1700000044.900000) vcan0 0CF00400#F0FFA3BD3900FFFF
(1700000044.900000) vcan0 18FEF100#FF1D59FFFFFFFFFF
(1700000044.920000) vcan0 0CF00400#F0FFA3C23900FFFF
(1700000044.940000) vcan0 0CF00400#F0FFA3C83900FFFF
(1700000044.960000) vcan0 0CF00400#F0FFA3CE3900FFFF
(1700000044.980000) vcan0 0CF00400#F0FFA3D33900FFFF
(1700000045.000000) vcan0 0CF00400#F0FFA3D83900FFFF
(1700000045.000000) vcan0 18FEF100#FF0659FFFFFFFFFF
(1700000045.020000) vcan0 0CF00400#F0FFA3DD3900FFFF
(1700000045.040000) vcan0 0CF00400#F0FFA3E23900FFFF
(1700000045.060000) vcan0 0CF00400#F0FFA3E63900FFFF
(1700000045.080000) vcan0 0CF00400#F0FFA3EB3900FFFF
(1700000045.100000) vcan0 0CF00400#F0FFA3EF3900FFFF
(1700000045.100000) vcan0 18FEF100#FFF058FFFFFFFFFF
(1700000045.120000) vcan0 0CF00400#F0FFA3F33900FFFF
(1700000045.140000) vcan0 0CF00400#F0FFA3F73900FFFF
(1700000045.160000) vcan0 0CF00400#F0FFA3FB3900FFFF
(1700000045.180000) vcan0 0CF00400#F0FFA3FE3900FFFF
(1700000045.200000) vcan0 0CF00400#F0FFA3023A00FFFF
(1700000045.200000) vcan0 18FEF100#FFDB58FFFFFFFFFF
(1700000045.220000) vcan0 0CF00400#F0FFA3053A00FFFF
(1700000045.240000) vcan0 0CF00400#F0FFA3083A00FFFF
(1700000045.260000) vcan0 0CF00400#F0FFA30B3A00FFFF
(1700000045.280000) vcan0 0CF00400#F0FFA30E3A00FFFF
(1700000045.300000) vcan0 0CF00400#F0FFA3103A00FFFF
(1700000045.300000) vcan0 18FEF100#FFC658FFFFFFFFFF
(1700000045.320000) vcan0 0CF00400#F0FFA3133A00FFFF
(1700000045.340000) vcan0 0CF00400#F0FFA3153A00FFFF
(1700000045.360000) vcan0 0CF00400#F0FFA3173A00FFFF
(1700000045.380000) vcan0 0CF00400#F0FFA3183A00FFFF
(1700000045.400000) vcan0 0CF00400#F0FFA31A3A00FFFF
(1700000045.400000) vcan0 18FEF100#FFB258FFFFFFFFFF
(1700000045.420000) vcan0 0CF00400#F0FFA31B3A00FFFF
(1700000045.440000) vcan0 0CF00400#F0FFA31C3A00FFFF
(1700000045.460000) vcan0 0CF00400#F0FFA31D3A00FFFF
(1700000045.480000) vcan0 0CF00400#F0FFA31E3A00FFFF
(1700000045.500000) vcan0 0CF00400#F0FFA31F3A00FFFF
(1700000045.500000) vcan0 18FEF100#FF9F58FFFFFFFFFF
(1700000045.500000) vcan0 18FECA00#00FF00000000FFFF
(1700000045.520000) vcan0 0CF00400#F0FFA31F3A00FFFF
(1700000045.540000) vcan0 0CF00400#F0FFA31F3A00FFFF
(1700000045.560000) vcan0 0CF00400#F0FFA31F3A00FFFF
(1700000045.580000) vcan0 0CF00400#F0FFA31F3A00FFFF
(1700000045.600000) vcan0 0CF00400#F0FFA31F3A00FFFF
(1700000045.600000) vcan0 18FEF100#FF8D58FFFFFFFFFF
(1700000045.620000) vcan0 0CF00400#F0FFA31E3A00FFFF
(1700000045.640000) vcan0 0CF00400#F0FFA31E3A00FFFF
(1700000045.660000) vcan0 0CF00400#F0FFA31D3A00FFFF
(1700000045.680000) vcan0 0CF00400#F0FFA31C3A00FFFF
(1700000045.700000) vcan0 0CF00400#F0FFA31A3A00FFFF
(1700000045.700000) vcan0 18FEF100#FF7C58FFFFFFFFFF
(1700000045.720000) vcan0 0CF00400#F0FFA3193A00FFFF
(1700000045.740000) vcan0 0CF00400#F0FFA3173A00FFFF
(1700000045.760000) vcan0 0CF00400#F0FFA3153A00FFFF
(1700000045.780000) vcan0 0CF00400#F0FFA3133A00FFFF
(1700000045.800000) vcan0 0CF00400#F0FFA3113A00FFFF
(1700000045.800000) vcan0 18FEF100#FF6C58FFFFFFFFFF
(1700000045.820000) vcan0 0CF00400#F0FFA30F3A00FFFF
(1700000045.840000) vcan0 0CF00400#F0FFA30C3A00FFFF
(1700000045.860000) vcan0 0CF00400#F0FFA3093A00FFFF
(1700000045.880000) vcan0 0CF00400#F0FFA3063A00FFFF
(1700000045.900000) vcan0 0CF00400#F0FFA3033A00FFFF
(1700000045.900000) vcan0 18FEF100#FF5C58FFFFFFFFFF
(1700000045.920000) vcan0 0CF00400#F0FFA3003A00FFFF
(1700000045.940000) vcan0 0CF00400#F0FFA3FC3900FFFF
(1700000045.960000) vcan0 0CF00400#F0FFA3F83900FFFF
(1700000045.980000) vcan0 0CF00400#F0FFA3F43900FFFF
(1700000046.000000) vcan0 0CF00400#F0FFA3F03900FFFF
(1700000046.000000) vcan0 18FEF100#FF4E58FFFFFFFFFF
(1700000046.020000) vcan0 0CF00400#F0FFA3EC3900FFFF
(1700000046.040000) vcan0 0CF00400#F0FFA3E83900FFFF
(1700000046.060000) vcan0 0CF00400#F0FFA3E33900FFFF
(1700000046.080000) vcan0 0CF00400#F0FFA3DE3900FFFF
(1700000046.100000) vcan0 0CF00400#F0FFA3D93900FFFF
(1700000046.100000) vcan0 18FEF100#FF4158FFFFFFFFFF
(1700000046.120000) vcan0 0CF00400#F0FFA3D43900FFFF
(1700000046.140000) vcan0 0CF00400#F0FFA3CF3900FFFF
(1700000046.160000) vcan0 0CF00400#F0FFA3CA3900FFFF
(1700000046.180000) vcan0 0CF00400#F0FFA3C43900FFFF
(1700000046.200000) vcan0 0CF00400#F0FFA3BF3900FFFF
(1700000046.200000) vcan0 18FEF100#FF3558FFFFFFFFFF
(1700000046.220000) vcan0 0CF00400#F0FFA3B93900FFFF
(1700000046.240000) vcan0 0CF00400#F0FFA3B33900FFFF
(1700000046.260000) vcan0 0CF00400#F0FFA3AC3900FFFF
(1700000046.280000) vcan0 0CF00400#F0FFA3A63900FFFF
(1700000046.300000) vcan0 0CF00400#F0FFA3A03900FFFF
(1700000046.300000) vcan0 18FEF100#FF2A58FFFFFFFFFF
(1700000046.320000) vcan0 0CF00400#F0FFA3993900FFFF
(1700000046.340000) vcan0 0CF00400#F0FFA3923900FFFF
(1700000046.360000) vcan0 0CF00400#F0FFA38C3900FFFF
(1700000046.380000) vcan0 0CF00400#F0FFA3853900FFFF
(1700000046.400000) vcan0 0CF00400#F0FFA37D3900FFFF
(1700000046.400000) vcan0 18FEF100#FF2158FFFFFFFFFF
(1700000046.420000) vcan0 0CF00400#F0FFA3763900FFFF
(1700000046.440000) vcan0 0CF00400#F0FFA36F3900FFFF
(1700000046.460000) vcan0 0CF00400#F0FFA3673900FFFF
(1700000046.480000) vcan0 0CF00400#F0FFA3603900FFFF
(1700000046.500000) vcan0 0CF00400#F0FFA3583900FFFF
(1700000046.500000) vcan0 18FEF100#FF1858FFFFFFFFFF
(1700000046.500000) vcan0 18FECA00#00FF00000000FFFF
(1700000046.520000) vcan0 0CF00400#F0FFA3503900FFFF
(1700000046.540000) vcan0 0CF00400#F0FFA3483900FFFF
(1700000046.560000) vcan0 0CF00400#F0FFA3403900FFFF
(1700000046.580000) vcan0 0CF00400#F0FFA3383900FFFF
(1700000046.600000) vcan0 0CF00400#F0FFA3303900FFFF
(1700000046.600000) vcan0 18FEF100#FF1158FFFFFFFFFF
(1700000046.620000) vcan0 0CF00400#F0FFA3273900FFFF
(1700000046.640000) vcan0 0CF00400#F0FFA31F3900FFFF
(1700000046.660000) vcan0 0CF00400#F0FFA3163900FFFF
(1700000046.680000) vcan0 0CF00400#F0FFA30E3900FFFF
(1700000046.700000) vcan0 0CF00400#F0FFA3053900FFFF
(1700000046.700000) vcan0 18FEF100#FF0B58FFFFFFFFFF
(1700000046.720000) vcan0 0CF00400#F0FFA3FC3800FFFF
(1700000046.740000) vcan0 0CF00400#F0FFA3F33800FFFF
(1700000046.760000) vcan0 0CF00400#F0FFA3EA3800FFFF
(1700000046.780000) vcan0 0CF00400#F0FFA3E13800FFFF
(1700000046.800000) vcan0 0CF00400#F0FFA3D83800FFFF
(1700000046.800000) vcan0 18FEF100#FF0658FFFFFFFFFF
(1700000046.820000) vcan0 0CF00400#F0FFA3CF3800FFFF
(1700000046.840000) vcan0 0CF00400#F0FFA3C63800FFFF
(1700000046.860000) vcan0 0CF00400#F0FFA3BD3800FFFF
(1700000046.880000) vcan0 0CF00400#F0FFA3B33800FFFF
(1700000046.900000) vcan0 0CF00400#F0FFA3AA3800FFFF
(1700000046.900000) vcan0 18FEF100#FF0358FFFFFFFFFF
(1700000046.920000) vcan0 0CF00400#F0FFA3A13800FFFF
(1700000046.940000) vcan0 0CF00400#F0FFA3973800FFFF
(1700000046.960000) vcan0 0CF00400#F0FFA38E3800FFFF
(1700000046.980000) vcan0 0CF00400#F0FFA3843800FFFF
(1700000047.000000) vcan0 0CF00400#F0FFA37B3800FFFF
(1700000047.000000) vcan0 18FEF100#FF0058FFFFFFFFFF
(1700000047.020000) vcan0 0CF00400#F0FFA3713800FFFF
(1700000047.040000) vcan0 0CF00400#F0FFA3683800FFFF
(1700000047.060000) vcan0 0CF00400#F0FFA35E3800FFFF
(1700000047.080000) vcan0 0CF00400#F0FFA3553800FFFF
(1700000047.100000) vcan0 0CF00400#F0FFA34B3800FFFF
(1700000047.100000) vcan0 18FEF100#FF0058FFFFFFFFFF
(1700000047.120000) vcan0 0CF00400#F0FFA3413800FFFF
(1700000047.140000) vcan0 0CF00400#F0FFA2383800FFFF
(1700000047.160000) vcan0 0CF00400#F0FFA22E3800FFFF
(1700000047.180000) vcan0 0CF00400#F0FFA2253800FFFF
(1700000047.200000) vcan0 0CF00400#F0FFA21B3800FFFF
(1700000047.200000) vcan0 18FEF100#FF0058FFFFFFFFFF
(1700000047.220000) vcan0 0CF00400#F0FFA2113800FFFF
(1700000047.240000) vcan0 0CF00400#F0FFA2083800FFFF
(1700000047.260000) vcan0 0CF00400#F0FFA2FE3700FFFF
(1700000047.280000) vcan0 0CF00400#F0FFA2F53700FFFF
(1700000047.300000) vcan0 0CF00400#F0FFA2EB3700FFFF
(1700000047.300000) vcan0 18FEF100#FF0158FFFFFFFFFF
(1700000047.320000) vcan0 0CF00400#F0FFA2E23700FFFF
(1700000047.340000) vcan0 0CF00400#F0FFA2D93700FFFF
(1700000047.360000) vcan0 0CF00400#F0FFA2CF3700FFFF
(1700000047.380000) vcan0 0CF00400#F0FFA2C63700FFFF
(1700000047.400000) vcan0 0CF00400#F0FFA2BD3700FFFF
(1700000047.400000) vcan0 18FEF100#FF0458FFFFFFFFFF
(1700000047.420000) vcan0 0CF00400#F0FFA2B33700FFFF
(1700000047.440000) vcan0 0CF00400#F0FFA2AA3700FFFF
(1700000047.460000) vcan0 0CF00400#F0FFA2A13700FFFF
(1700000047.480000) vcan0 0CF00400#F0FFA2983700FFFF
(1700000047.500000) vcan0 0CF00400#F0FFA28F3700FFFF
(1700000047.500000) vcan0 18FEF100#FF0958FFFFFFFFFF
(1700000047.500000) vcan0 18FECA00#00FF00000000FFFF
(1700000047.520000) vcan0 0CF00400#F0FFA2863700FFFF
(1700000047.540000) vcan0 0CF00400#F0FFA27D3700FFFF
(1700000047.560000) vcan0 0CF00400#F0FFA2753700FFFF
(1700000047.580000) vcan0 0CF00400#F0FFA26C3700FFFF
(1700000047.600000) vcan0 0CF00400#F0FFA2643700FFFF
(1700000047.600000) vcan0 18FEF100#FF0E58FFFFFFFFFF
(1700000047.620000) vcan0 0CF00400#F0FFA25B3700FFFF
(1700000047.640000) vcan0 0CF00400#F0FFA2533700FFFF
(1700000047.660000) vcan0 0CF00400#F0FFA24A3700FFFF
(1700000047.680000) vcan0 0CF00400#F0FFA2423700FFFF
(1700000047.700000) vcan0 0CF00400#F0FFA23A3700FFFF
(1700000047.700000) vcan0 18FEF100#FF1558FFFFFFFFFF
(1700000047.720000) vcan0 0CF00400#F0FFA2323700FFFF
(1700000047.740000) vcan0 0CF00400#F0FFA22A3700FFFF
(1700000047.760000) vcan0 0CF00400#F0FFA2223700FFFF
(1700000047.780000) vcan0 0CF00400#F0FFA21B3700FFFF
(1700000047.800000) vcan0 0CF00400#F0FFA2133700FFFF
(1700000047.800000) vcan0 18FEF100#FF1C58FFFFFFFFFF
(1700000047.820000) vcan0 0CF00400#F0FFA20C3700FFFF
(1700000047.840000) vcan0 0CF00400#F0FFA2043700FFFF
(1700000047.860000) vcan0 0CF00400#F0FFA2FD3600FFFF
(1700000047.880000) vcan0 0CF00400#F0FFA2F63600FFFF
(1700000047.900000) vcan0 0CF00400#F0FFA2EF3600FFFF
(1700000047.900000) vcan0 18FEF100#FF2658FFFFFFFFFF
(1700000047.920000) vcan0 0CF00400#F0FFA2E83600FFFF
(1700000047.940000) vcan0 0CF00400#F0FFA2E23600FFFF
(1700000047.960000) vcan0 0CF00400#F0FFA2DB3600FFFF
(1700000047.980000) vcan0 0CF00400#F0FFA2D53600FFFF
(1700000048.000000) vcan0 0CF00400#F0FFA2CF3600FFFF
(1700000048.000000) vcan0 18FEF100#FF3058FFFFFFFFFF
(1700000048.000000) vcan0 18FEEE00#7DFF002EFFFFFFFF
(1700000048.020000) vcan0 0CF00400#F0FFA2C93600FFFF
(1700000048.040000) vcan0 0CF00400#F0FFA2C33600FFFF
(1700000048.060000) vcan0 0CF00400#F0FFA2BD3600FFFF
(1700000048.080000) vcan0 0CF00400#F0FFA2B73600FFFF
(1700000048.100000) vcan0 0CF00400#F0FFA2B23600FFFF
(1700000048.100000) vcan0 18FEF100#FF3B58FFFFFFFFFF
(1700000048.120000) vcan0 0CF00400#F0FFA2AD3600FFFF
(1700000048.140000) vcan0 0CF00400#F0FFA2A73600FFFF
(1700000048.160000) vcan0 0CF00400#F0FFA2A23600FFFF
(1700000048.180000) vcan0 0CF00400#F0FFA29E3600FFFF
(1700000048.200000) vcan0 0CF00400#F0FFA2993600FFFF
(1700000048.200000) vcan0 18FEF100#FF4858FFFFFFFFFF
(1700000048.220000) vcan0 0CF00400#F0FFA2953600FFFF
(1700000048.240000) vcan0 0CF00400#F0FFA2903600FFFF
(1700000048.260000) vcan0 0CF00400#F0FFA28C3600FFFF
(1700000048.280000) vcan0 0CF00400#F0FFA2883600FFFF
(1700000048.300000) vcan0 0CF00400#F0FFA2843600FFFF
(1700000048.300000) vcan0 18FEF100#FF5658FFFFFFFFFF
(1700000048.320000) vcan0 0CF00400#F0FFA2813600FFFF
(1700000048.340000) vcan0 0CF00400#F0FFA27D3600FFFF
(1700000048.360000) vcan0 0CF00400#F0FFA27A3600FFFF
(1700000048.380000) vcan0 0CF00400#F0FFA2773600FFFF
(1700000048.400000) vcan0 0CF00400#F0FFA2743600FFFF
(1700000048.400000) vcan0 18FEF100#FF6458FFFFFFFFFF
(1700000048.420000) vcan0 0CF00400#F0FFA2713600FFFF
(1700000048.440000) vcan0 0CF00400#F0FFA26F3600FFFF
(1700000048.460000) vcan0 0CF00400#F0FFA26D3600FFFF
(1700000048.480000) vcan0 0CF00400#F0FFA26B3600FFFF
(1700000048.500000) vcan0 0CF00400#F0FFA2693600FFFF
(1700000048.500000) vcan0 18FEF100#FF7458FFFFFFFFFF
(1700000048.500000) vcan0 18FECA00#00FF00000000FFFF
(1700000048.520000) vcan0 0CF00400#F0FFA2673600FFFF
(1700000048.540000) vcan0 0CF00400#F0FFA2653600FFFF
(1700000048.560000) vcan0 0CF00400#F0FFA2643600FFFF
(1700000048.580000) vcan0 0CF00400#F0FFA2633600FFFF
(1700000048.600000) vcan0 0CF00400#F0FFA2623600FFFF
(1700000048.600000) vcan0 18FEF100#FF8558FFFFFFFFFF
(1700000048.620000) vcan0 0CF00400#F0FFA2613600FFFF
(1700000048.640000) vcan0 0CF00400#F0FFA2603600FFFF
(1700000048.660000) vcan0 0CF00400#F0FFA2603600FFFF
(1700000048.680000) vcan0 0CF00400#F0FFA2603600FFFF
(1700000048.700000) vcan0 0CF00400#F0FFA2603600FFFF
(1700000048.700000) vcan0 18FEF100#FF9658FFFFFFFFFF
(1700000048.720000) vcan0 0CF00400#F0FFA2603600FFFF
(1700000048.740000) vcan0 0CF00400#F0FFA2603600FFFF
(1700000048.760000) vcan0 0CF00400#F0FFA2613600FFFF
(1700000048.780000) vcan0 0CF00400#F0FFA2613600FFFF
(1700000048.800000) vcan0 0CF00400#F0FFA2623600FFFF
(1700000048.800000) vcan0 18FEF100#FFA958FFFFFFFFFF
(1700000048.820000) vcan0 0CF00400#F0FFA2633600FFFF
(1700000048.840000) vcan0 0CF00400#F0FFA2653600FFFF
(1700000048.860000) vcan0 0CF00400#F0FFA2663600FFFF
(1700000048.880000) vcan0 0CF00400#F0FFA2683600FFFF
(1700000048.900000) vcan0 0CF00400#F0FFA26A3600FFFF
(1700000048.900000) vcan0 18FEF100#FFBC58FFFFFFFFFF
(1700000048.920000) vcan0 0CF00400#F0FFA26C3600FFFF
(1700000048.940000) vcan0 0CF00400#F0FFA26E3600FFFF
(1700000048.960000) vcan0 0CF00400#F0FFA2703600FFFF
(1700000048.980000) vcan0 0CF00400#F0FFA2733600FFFF
(1700000049.000000) vcan0 0CF00400#F0FFA2763600FFFF
(1700000049.000000) vcan0 18FEF100#FFD158FFFFFFFFFF
(1700000049.000000) vcan0 18FEEE00#7DFF002EFFFFFFFF
(1700000049.020000) vcan0 0CF00400#F0FFA2793600FFFF
(1700000049.040000) vcan0 0CF00400#F0FFA27C3600FFFF
(1700000049.060000) vcan0 0CF00400#F0FFA27F3600FFFF
(1700000049.080000) vcan0 0CF00400#F0FFA2833600FFFF
(1700000049.100000) vcan0 0CF00400#F0FFA2863600FFFF
(1700000049.100000) vcan0 18FEF100#FFE658FFFFFFFFFF
(1700000049.120000) vcan0 0CF00400#F0FFA28A3600FFFF
(1700000049.140000) vcan0 0CF00400#F0FFA28E3600FFFF
(1700000049.160000) vcan0 0CF00400#F0FFA2933600FFFF
(1700000049.180000) vcan0 0CF00400#F0FFA2973600FFFF
(1700000049.200000) vcan0 0CF00400#F0FFA29B3600FFFF
(1700000049.200000) vcan0 18FEF100#FFFB58FFFFFFFFFF
(1700000049.220000) vcan0 0CF00400#F0FFA2A03600FFFF
(1700000049.240000) vcan0 0CF00400#F0FFA2A53600FFFF
(1700000049.260000) vcan0 0CF00400#F0FFA2AA3600FFFF
(1700000049.280000) vcan0 0CF00400#F0FFA2AF3600FFFF
(1700000049.300000) vcan0 0CF00400#F0FFA2B53600FFFF
(1700000049.300000) vcan0 18FEF100#FF1259FFFFFFFFFF
(1700000049.320000) vcan0 0CF00400#F0FFA2BA3600FFFF
(1700000049.340000) vcan0 0CF00400#F0FFA2C03600FFFF
(1700000049.360000) vcan0 0CF00400#F0FFA2C63600FFFF
(1700000049.380000) vcan0 0CF00400#F0FFA2CC3600FFFF
(1700000049.400000) vcan0 0CF00400#F0FFA2D23600FFFF
(1700000049.400000) vcan0 18FEF100#FF2959FFFFFFFFFF
(1700000049.420000) vcan0 0CF00400#F0FFA2D83600FFFF
(1700000049.440000) vcan0 0CF00400#F0FFA2DF3600FFFF
(1700000049.460000) vcan0 0CF00400#F0FFA2E53600FFFF
(1700000049.480000) vcan0 0CF00400#F0FFA2EC3600FFFF
(1700000049.500000) vcan0 0CF00400#F0FFA2F33600FFFF
(1700000049.500000) vcan0 18FEF100#FF4059FFFFFFFFFF
(1700000049.500000) vcan0 18FECA00#00FF00000000FFFF
(1700000049.520000) vcan0 0CF00400#F0FFA2FA3600FFFF
(1700000049.540000) vcan0 0CF00400#F0FFA2013700FFFF
(1700000049.560000) vcan0 0CF00400#F0FFA2083700FFFF
(1700000049.580000) vcan0 0CF00400#F0FFA2103700FFFF
(1700000049.600000) vcan0 0CF00400#F0FFA2173700FFFF
(1700000049.600000) vcan0 18FEF100#FF5859FFFFFFFFFF
(1700000049.620000) vcan0 0CF00400#F0FFA21F3700FFFF
(1700000049.640000) vcan0 0CF00400#F0FFA2263700FFFF
(1700000049.660000) vcan0 0CF00400#F0FFA22E3700FFFF
(1700000049.680000) vcan0 0CF00400#F0FFA2363700FFFF
(1700000049.700000) vcan0 0CF00400#F0FFA23E3700FFFF
(1700000049.700000) vcan0 18FEF100#FF7159FFFFFFFFFF
(1700000049.720000) vcan0 0CF00400#F0FFA2463700FFFF
(1700000049.740000) vcan0 0CF00400#F0FFA24F3700FFFF
(1700000049.760000) vcan0 0CF00400#F0FFA2573700FFFF
(1700000049.780000) vcan0 0CF00400#F0FFA2603700FFFF
(1700000049.800000) vcan0 0CF00400#F0FFA2683700FFFF
(1700000049.800000) vcan0 18FEF100#FF8959FFFFFFFFFF
(1700000049.820000) vcan0 0CF00400#F0FFA2713700FFFF
(1700000049.840000) vcan0 0CF00400#F0FFA2793700FFFF
(1700000049.860000) vcan0 0CF00400#F0FFA2823700FFFF
(1700000049.880000) vcan0 0CF00400#F0FFA28B3700FFFF
(1700000049.900000) vcan0 0CF00400#F0FFA2943700FFFF
(1700000049.900000) vcan0 18FEF100#FFA259FFFFFFFFFF
(1700000049.920000) vcan0 0CF00400#F0FFA29D3700FFFF
(1700000049.940000) vcan0 0CF00400#F0FFA2A63700FFFF
(1700000049.960000) vcan0 0CF00400#F0FFA2AF3700FFFF
(1700000049.980000) vcan0 0CF00400#F0FFA2B83700FFFF
(1700000050.000000) vcan0 0CF00400#F0FFA2C23700FFFF
(1700000050.000000) vcan0 18FEF100#FFBC59FFFFFFFFFF
(1700000050.000000) vcan0 18FEEE00#7DFF002EFFFFFFFF
(1700000050.020000) vcan0 0CF00400#F0FFA2CB3700FFFF
(1700000050.040000) vcan0 0CF00400#F0FFA2D43700FFFF
(1700000050.060000) vcan0 0CF00400#F0FFA2DE3700FFFF
(1700000050.080000) vcan0 0CF00400#F0FFA2E73700FFFF
(1700000050.100000) vcan0 0CF00400#F0FFA2F03700FFFF
(1700000050.100000) vcan0 18FEF100#FFD559FFFFFFFFFF
(1700000050.120000) vcan0 0CF00400#F0FFA2FA3700FFFF
(1700000050.140000) vcan0 0CF00400#F0FFA2033800FFFF
(1700000050.160000) vcan0 0CF00400#F0FFA20D3800FFFF
(1700000050.180000) vcan0 0CF00400#F0FFA2173800FFFF
(1700000050.200000) vcan0 0CF00400#F0FFA2203800FFFF
(1700000050.200000) vcan0 18FEF100#FFEF59FFFFFFFFFF
(1700000050.220000) vcan0 0CF00400#F0FFA22A3800FFFF
(1700000050.240000) vcan0 0CF00400#F0FFA2333800FFFF
(1700000050.260000) vcan0 0CF00400#F0FFA23D3800FFFF
(1700000050.280000) vcan0 0CF00400#F0FFA3463800FFFF
(1700000050.300000) vcan0 0CF00400#F0FFA3503800FFFF
(1700000050.300000) vcan0 18FEF100#FF085AFFFFFFFFFF
(1700000050.320000) vcan0 0CF00400#F0FFA35A3800FFFF
(1700000050.340000) vcan0 0CF00400#F0FFA3633800FFFF
(1700000050.360000) vcan0 0CF00400#F0FFA36D3800FFFF
(1700000050.380000) vcan0 0CF00400#F0FFA3763800FFFF
(1700000050.400000) vcan0 0CF00400#F0FFA3803800FFFF
(1700000050.400000) vcan0 18FEF100#FF225AFFFFFFFFFF
(1700000050.420000) vcan0 0CF00400#F0FFA3893800FFFF
(1700000050.440000) vcan0 0CF00400#F0FFA3933800FFFF
(1700000050.460000) vcan0 0CF00400#F0FFA39C3800FFFF
(1700000050.480000) vcan0 0CF00400#F0FFA3A63800FFFF
(1700000050.500000) vcan0 0CF00400#F0FFA3AF3800FFFF
(1700000050.500000) vcan0 18FEF100#FF3B5AFFFFFFFFFF
(1700000050.500000) vcan0 18FECA00#00FF00000000FFFF
(1700000050.520000) vcan0 0CF00400#F0FFA3B83800FFFF
(1700000050.540000) vcan0 0CF00400#F0FFA3C23800FFFF
(1700000050.560000) vcan0 0CF00400#F0FFA3CB3800FFFF
(1700000050.580000) vcan0 0CF00400#F0FFA3D43800FFFF
(1700000050.600000) vcan0 0CF00400#F0FFA3DD3800FFFF
(1700000050.600000) vcan0 18FEF100#FF555AFFFFFFFFFF
(1700000050.620000) vcan0 0CF00400#F0FFA3E63800FFFF
(1700000050.640000) vcan0 0CF00400#F0FFA3EF3800FFFF
(1700000050.660000) vcan0 0CF00400#F0FFA3F83800FFFF
(1700000050.680000) vcan0 0CF00400#F0FFA3013900FFFF
(1700000050.700000) vcan0 0CF00400#F0FFA30A3900FFFF
(1700000050.700000) vcan0 18FEF100#FF6E5AFFFFFFFFFF
(1700000050.720000) vcan0 0CF00400#F0FFA3123900FFFF
(1700000050.740000) vcan0 0CF00400#F0FFA31B3900FFFF
(1700000050.760000) vcan0 0CF00400#F0FFA3233900FFFF
(1700000050.780000) vcan0 0CF00400#F0FFA32C3900FFFF
(1700000050.800000) vcan0 0CF00400#F0FFA3343900FFFF
(1700000050.800000) vcan0 18FEF100#FF875AFFFFFFFFFF
(1700000050.820000) vcan0 0CF00400#F0FFA33C3900FFFF
(1700000050.840000) vcan0 0CF00400#F0FFA3443900FFFF
(1700000050.860000) vcan0 0CF00400#F0FFA34C3900FFFF
(1700000050.880000) vcan0 0CF00400#F0FFA3543900FFFF
(1700000050.900000) vcan0 0CF00400#F0FFA35C3900FFFF
(1700000050.900000) vcan0 18FEF100#FF9F5AFFFFFFFFFF
(1700000050.920000) vcan0 0CF00400#F0FFA3643900FFFF
(1700000050.940000) vcan0 0CF00400#F0FFA36B3900FFFF
(1700000050.960000) vcan0 0CF00400#F0FFA3733900FFFF
(1700000050.980000) vcan0 0CF00400#F0FFA37A3900FFFF
(1700000051.000000) vcan0 0CF00400#F0FFA3813900FFFF
(1700000051.000000) vcan0 18FEF100#FFB75AFFFFFFFFFF
(1700000051.000000) vcan0 18FEEE00#7DFF002EFFFFFFFF
(1700000051.020000) vcan0 0CF00400#F0FFA3883900FFFF
(1700000051.040000) vcan0 0CF00400#F0FFA38F3900FFFF
(1700000051.060000) vcan0 0CF00400#F0FFA3963900FFFF
(1700000051.080000) vcan0 0CF00400#F0FFA39D3900FFFF
(1700000051.100000) vcan0 0CF00400#F0FFA3A33900FFFF
(1700000051.100000) vcan0 18FEF100#FFCF5AFFFFFFFFFF
(1700000051.120000) vcan0 0CF00400#F0FFA3AA3900FFFF
(1700000051.140000) vcan0 0CF00400#F0FFA3B03900FFFF
(1700000051.160000) vcan0 0CF00400#F0FFA3B63900FFFF
(1700000051.180000) vcan0 0CF00400#F0FFA3BC3900FFFF
(1700000051.200000) vcan0 0CF00400#F0FFA3C23900FFFF
(1700000051.200000) vcan0 18FEF100#FFE65AFFFFFFFFFF
(1700000051.220000) vcan0 0CF00400#F0FFA3C73900FFFF
(1700000051.240000) vcan0 0CF00400#F0FFA3CD3900FFFF
(1700000051.260000) vcan0 0CF00400#F0FFA3D23900FFFF
(1700000051.280000) vcan0 0CF00400#F0FFA3D73900FFFF
(1700000051.300000) vcan0 0CF00400#F0FFA3DC3900FFFF
(1700000051.300000) vcan0 18FEF100#FFFD5AFFFFFFFFFF
(1700000051.320000) vcan0 0CF00400#F0FFA3E13900FFFF
(1700000051.340000) vcan0 0CF00400#F0FFA3E63900FFFF
(1700000051.360000) vcan0 0CF00400#F0FFA3EA3900FFFF
(1700000051.380000) vcan0 0CF00400#F0FFA3EE3900FFFF
(1700000051.400000) vcan0 0CF00400#F0FFA3F33900FFFF
(1700000051.400000) vcan0 18FEF100#FF135BFFFFFFFFFF
(1700000051.420000) vcan0 0CF00400#F0FFA3F73900FFFF
(1700000051.440000) vcan0 0CF00400#F0FFA3FA3900FFFF
(1700000051.460000) vcan0 0CF00400#F0FFA3FE3900FFFF
(1700000051.480000) vcan0 0CF00400#F0FFA3013A00FFFF
(1700000051.500000) vcan0 0CF00400#F0FFA3053A00FFFF
(1700000051.500000) vcan0 18FEF100#FF285BFFFFFFFFFF
(1700000051.500000) vcan0 18FECA00#00FF00000000FFFF
(1700000051.520000) vcan0 0CF00400#F0FFA3083A00FFFF
(1700000051.540000) vcan0 0CF00400#F0FFA30B3A00FFFF
(1700000051.560000) vcan0 0CF00400#F0FFA30D3A00FFFF
(1700000051.580000) vcan0 0CF00400#F0FFA3103A00FFFF
(1700000051.600000) vcan0 0CF00400#F0FFA3123A00FFFF
(1700000051.600000) vcan0 18FEF100#FF3C5BFFFFFFFFFF
(1700000051.620000) vcan0 0CF00400#F0FFA3143A00FFFF
(1700000051.640000) vcan0 0CF00400#F0FFA3163A00FFFF
(1700000051.660000) vcan0 0CF00400#F0FFA3183A00FFFF
(1700000051.680000) vcan0 0CF00400#F0FFA31A3A00FFFF
(1700000051.700000) vcan0 0CF00400#F0FFA31B3A00FFFF
(1700000051.700000) vcan0 18FEF100#FF505BFFFFFFFFFF
(1700000051.720000) vcan0 0CF00400#F0FFA31C3A00FFFF
(1700000051.740000) vcan0 0CF00400#F0FFA31D3A00FFFF
(1700000051.760000) vcan0 0CF00400#F0FFA31E3A00FFFF
(1700000051.780000) vcan0 0CF00400#F0FFA31F3A00FFFF
(1700000051.800000) vcan0 0CF00400#F0FFA31F3A00FFFF
(1700000051.800000) vcan0 18FEF100#FF635BFFFFFFFFFF
(1700000051.820000) vcan0 0CF00400#F0FFA31F3A00FFFF
(1700000051.840000) vcan0 0CF00400#F0FFA31F3A00FFFF
(1700000051.860000) vcan0 0CF00400#F0FFA31F3A00FFFF
(1700000051.880000) vcan0 0CF00400#F0FFA31F3A00FFFF
(1700000051.900000) vcan0 0CF00400#F0FFA31F3A00FFFF
(1700000051.900000) vcan0 18FEF100#FF755BFFFFFFFFFF
(1700000051.920000) vcan0 0CF00400#F0FFA31E3A00FFFF
(1700000051.940000) vcan0 0CF00400#F0FFA31D3A00FFFF
(1700000051.960000) vcan0 0CF00400#F0FFA31C3A00FFFF
(1700000051.980000) vcan0 0CF00400#F0FFA31B3A00FFFF
(1700000052.000000) vcan0 0CF00400#F0FFA3193A00FFFF
(1700000052.000000) vcan0 18FEF100#FF865BFFFFFFFFFF
(1700000052.000000) vcan0 18FEEE00#7DFF002EFFFFFFFF
(1700000052.020000) vcan0 0CF00400#F0FFA3173A00FFFF
(1700000052.040000) vcan0 0CF00400#F0FFA3163A00FFFF
(1700000052.060000) vcan0 0CF00400#F0FFA3143A00FFFF
(1700000052.080000) vcan0 0CF00400#F0FFA3113A00FFFF
(1700000052.100000) vcan0 0CF00400#F0FFA30F3A00FFFF
(1700000052.100000) vcan0 18FEF100#FF965BFFFFFFFFFF
(1700000052.120000) vcan0 0CF00400#F0FFA30C3A00FFFF
(1700000052.140000) vcan0 0CF00400#F0FFA30A3A00FFFF
(1700000052.160000) vcan0 0CF00400#F0FFA3073A00FFFF
(1700000052.180000) vcan0 0CF00400#F0FFA3033A00FFFF
(1700000052.200000) vcan0 0CF00400#F0FFA3003A00FFFF
(1700000052.200000) vcan0 18FEF100#FFA55BFFFFFFFFFF
(1700000052.220000) vcan0 0CF00400#F0FFA3FD3900FFFF
(1700000052.240000) vcan0 0CF00400#F0FFA3F93900FFFF
(1700000052.260000) vcan0 0CF00400#F0FFA3F53900FFFF
(1700000052.280000) vcan0 0CF00400#F0FFA3F13900FFFF
(1700000052.300000) vcan0 0CF00400#F0FFA3ED3900FFFF
(1700000052.300000) vcan0 18FEF100#FFB35BFFFFFFFFFF
(1700000052.320000) vcan0 0CF00400#F0FFA3E83900FFFF
(1700000052.340000) vcan0 0CF00400#F0FFA3E43900FFFF
(1700000052.360000) vcan0 0CF00400#F0FFA3DF3900FFFF
(1700000052.380000) vcan0 0CF00400#F0FFA3DA3900FFFF
(1700000052.400000) vcan0 0CF00400#F0FFA3D53900FFFF
(1700000052.400000) vcan0 18FEF100#FFC05BFFFFFFFFFF
(1700000052.420000) vcan0 0CF00400#F0FFA3D03900FFFF
(1700000052.440000) vcan0 0CF00400#F0FFA3CB3900FFFF
(1700000052.460000) vcan0 0CF00400#F0FFA3C53900FFFF
(1700000052.480000) vcan0 0CF00400#F0FFA3BF3900FFFF
(1700000052.500000) vcan0 0CF00400#F0FFA3BA3900FFFF
(1700000052.500000) vcan0 18FEF100#FFCC5BFFFFFFFFFF
(1700000052.500000) vcan0 18FECA00#00FF00000000FFFF
(1700000052.520000) vcan0 0CF00400#F0FFA3B43900FFFF
(1700000052.540000) vcan0 0CF00400#F0FFA3AD3900FFFF
(1700000052.560000) vcan0 0CF00400#F0FFA3A73900FFFF
(1700000052.580000) vcan0 0CF00400#F0FFA3A13900FFFF
(1700000052.600000) vcan0 0CF00400#F0FFA39A3900FFFF
(1700000052.600000) vcan0 18FEF100#FFD65BFFFFFFFFFF
(1700000052.620000) vcan0 0CF00400#F0FFA3933900FFFF
(1700000052.640000) vcan0 0CF00400#F0FFA38D3900FFFF
(1700000052.660000) vcan0 0CF00400#F0FFA3863900FFFF
(1700000052.680000) vcan0 0CF00400#F0FFA37F3900FFFF
(1700000052.700000) vcan0 0CF00400#F0FFA3773900FFFF
(1700000052.700000) vcan0 18FEF100#FFE05BFFFFFFFFFF
(1700000052.720000) vcan0 0CF00400#F0FFA3703900FFFF
(1700000052.740000) vcan0 0CF00400#F0FFA3683900FFFF
(1700000052.760000) vcan0 0CF00400#F0FFA3613900FFFF
(1700000052.780000) vcan0 0CF00400#F0FFA3593900FFFF
(1700000052.800000) vcan0 0CF00400#F0FFA3513900FFFF
(1700000052.800000) vcan0 18FEF100#FFE85BFFFFFFFFFF
(1700000052.820000) vcan0 0CF00400#F0FFA3493900FFFF
(1700000052.840000) vcan0 0CF00400#F0FFA3413900FFFF
(1700000052.860000) vcan0 0CF00400#F0FFA3393900FFFF
(1700000052.880000) vcan0 0CF00400#F0FFA3313900FFFF
(1700000052.900000) vcan0 0CF00400#F0FFA3293900FFFF
(1700000052.900000) vcan0 18FEF100#FFEF5BFFFFFFFFFF
(1700000052.920000) vcan0 0CF00400#F0FFA3203900FFFF
(1700000052.940000) vcan0 0CF00400#F0FFA3183900FFFF
(1700000052.960000) vcan0 0CF00400#F0FFA30F3900FFFF
(1700000052.980000) vcan0 0CF00400#F0FFA3063900FFFF
(1700000053.000000) vcan0 0CF00400#F0FFA3FE3800FFFF
(1700000053.000000) vcan0 18FEF100#FFF55BFFFFFFFFFF
(1700000053.000000) vcan0 18FEEE00#7DFF002EFFFFFFFF
(1700000053.020000) vcan0 0CF00400#F0FFA3F53800FFFF
(1700000053.040000) vcan0 0CF00400#F0FFA3EC3800FFFF
(1700000053.060000) vcan0 0CF00400#F0FFA3E33800FFFF
(1700000053.080000) vcan0 0CF00400#F0FFA3DA3800FFFF
(1700000053.100000) vcan0 0CF00400#F0FFA3D13800FFFF
(1700000053.100000) vcan0 18FEF100#FFF95BFFFFFFFFFF
(1700000053.120000) vcan0 0CF00400#F0FFA3C73800FFFF
(1700000053.140000) vcan0 0CF00400#F0FFA3BE3800FFFF
(1700000053.160000) vcan0 0CF00400#F0FFA3B53800FFFF
(1700000053.180000) vcan0 0CF00400#F0FFA3AC3800FFFF
(1700000053.200000) vcan0 0CF00400#F0FFA3A23800FFFF
(1700000053.200000) vcan0 18FEF100#FFFD5BFFFFFFFFFF
(1700000053.220000) vcan0 0CF00400#F0FFA3993800FFFF
(1700000053.240000) vcan0 0CF00400#F0FFA38F3800FFFF
(1700000053.260000) vcan0 0CF00400#F0FFA3863800FFFF
(1700000053.280000) vcan0 0CF00400#F0FFA37C3800FFFF
(1700000053.300000) vcan0 0CF00400#F0FFA3733800FFFF
(1700000053.300000) vcan0 18FEF100#FFFF5BFFFFFFFFFF
(1700000053.320000) vcan0 0CF00400#F0FFA3693800FFFF
(1700000053.340000) vcan0 0CF00400#F0FFA3603800FFFF
(1700000053.360000) vcan0 0CF00400#F0FFA3563800FFFF
(1700000053.380000) vcan0 0CF00400#F0FFA34C3800FFFF
(1700000053.400000) vcan0 0CF00400#F0FFA3433800FFFF
(1700000053.400000) vcan0 18FEF100#FFFF5BFFFFFFFFFF
(1700000053.420000) vcan0 0CF00400#F0FFA2393800FFFF
(1700000053.440000) vcan0 0CF00400#F0FFA2303800FFFF
(1700000053.460000) vcan0 0CF00400#F0FFA2263800FFFF
(1700000053.480000) vcan0 0CF00400#F0FFA21D3800FFFF
(1700000053.500000) vcan0 0CF00400#F0FFA2133800FFFF
(1700000053.500000) vcan0 18FEF100#FFFF5BFFFFFFFFFF
(1700000053.500000) vcan0 18FECA00#00FF00000000FFFF
(1700000053.520000) vcan0 0CF00400#F0FFA2093800FFFF
(1700000053.540000) vcan0 0CF00400#F0FFA2003800FFFF
(1700000053.560000) vcan0 0CF00400#F0FFA2F63700FFFF
(1700000053.580000) vcan0 0CF00400#F0FFA2ED3700FFFF
(1700000053.600000) vcan0 0CF00400#F0FFA2E33700FFFF
(1700000053.600000) vcan0 18FEF100#FFFD5BFFFFFFFFFF
(1700000053.620000) vcan0 0CF00400#F0FFA2DA3700FFFF
(1700000053.640000) vcan0 0CF00400#F0FFA2D13700FFFF
(1700000053.660000) vcan0 0CF00400#F0FFA2C73700FFFF
(1700000053.680000) vcan0 0CF00400#F0FFA2BE3700FFFF
(1700000053.700000) vcan0 0CF00400#F0FFA2B53700FFFF
(1700000053.700000) vcan0 18FEF100#FFFA5BFFFFFFFFFF
(1700000053.720000) vcan0 0CF00400#F0FFA2AC3700FFFF
(1700000053.740000) vcan0 0CF00400#F0FFA2A33700FFFF
(1700000053.760000) vcan0 0CF00400#F0FFA29A3700FFFF
(1700000053.780000) vcan0 0CF00400#F0FFA2913700FFFF
(1700000053.800000) vcan0 0CF00400#F0FFA2883700FFFF
(1700000053.800000) vcan0 18FEF100#FFF65BFFFFFFFFFF
(1700000053.820000) vcan0 0CF00400#F0FFA27F3700FFFF
(1700000053.840000) vcan0 0CF00400#F0FFA2763700FFFF
(1700000053.860000) vcan0 0CF00400#F0FFA26D3700FFFF
(1700000053.880000) vcan0 0CF00400#F0FFA2653700FFFF
(1700000053.900000) vcan0 0CF00400#F0FFA25C3700FFFF
(1700000053.900000) vcan0 18FEF100#FFF05BFFFFFFFFFF
(1700000053.920000) vcan0 0CF00400#F0FFA2543700FFFF
(1700000053.940000) vcan0 0CF00400#F0FFA24C3700FFFF
(1700000053.960000) vcan0 0CF00400#F0FFA2433700FFFF
(1700000053.980000) vcan0 0CF00400#F0FFA23B3700FFFF
(1700000054.000000) vcan0 0CF00400#F0FFA2333700FFFF
(1700000054.000000) vcan0 18FEF100#FFE95BFFFFFFFFFF
(1700000054.000000) vcan0 18FEEE00#7DFF002EFFFFFFFF
(1700000054.020000) vcan0 0CF00400#F0FFA22B3700FFFF
(1700000054.040000) vcan0 0CF00400#F0FFA2243700FFFF
(1700000054.060000) vcan0 0CF00400#F0FFA21C3700FFFF
(1700000054.080000) vcan0 0CF00400#F0FFA2143700FFFF
(1700000054.100000) vcan0 0CF00400#F0FFA20D3700FFFF
(1700000054.100000) vcan0 18FEF100#FFE15BFFFFFFFFFF
(1700000054.120000) vcan0 0CF00400#F0FFA2063700FFFF
(1700000054.140000) vcan0 0CF00400#F0FFA2FE3600FFFF
(1700000054.160000) vcan0 0CF00400#F0FFA2F73600FFFF
(1700000054.180000) vcan0 0CF00400#F0FFA2F03600FFFF
(1700000054.200000) vcan0 0CF00400#F0FFA2EA3600FFFF
(1700000054.200000) vcan0 18FEF100#FFD85BFFFFFFFFFF
(1700000054.220000) vcan0 0CF00400#F0FFA2E33600FFFF
(1700000054.240000) vcan0 0CF00400#F0FFA2DC3600FFFF
(1700000054.260000) vcan0 0CF00400#F0FFA2D63600FFFF
(1700000054.280000) vcan0 0CF00400#F0FFA2D03600FFFF
(1700000054.300000) vcan0 0CF00400#F0FFA2CA3600FFFF
(1700000054.300000) vcan0 18FEF100#FFCD5BFFFFFFFFFF
(1700000054.320000) vcan0 0CF00400#F0FFA2C43600FFFF
(1700000054.340000) vcan0 0CF00400#F0FFA2BE3600FFFF
(1700000054.360000) vcan0 0CF00400#F0FFA2B83600FFFF
(1700000054.380000) vcan0 0CF00400#F0FFA2B33600FFFF
(1700000054.400000) vcan0 0CF00400#F0FFA2AD3600FFFF
(1700000054.400000) vcan0 18FEF100#FFC25BFFFFFFFFFF
(1700000054.420000) vcan0 0CF00400#F0FFA2A83600FFFF
(1700000054.440000) vcan0 0CF00400#F0FFA2A33600FFFF
(1700000054.460000) vcan0 0CF00400#F0FFA29E3600FFFF
(1700000054.480000) vcan0 0CF00400#F0FFA29A3600FFFF
(1700000054.500000) vcan0 0CF00400#F0FFA2953600FFFF
(1700000054.500000) vcan0 18FEF100#FFB55BFFFFFFFFFF
(1700000054.500000) vcan0 18FECA00#00FF00000000FFFF
(1700000054.520000) vcan0 0CF00400#F0FFA2913600FFFF
(1700000054.540000) vcan0 0CF00400#F0FFA28D3600FFFF
(1700000054.560000) vcan0 0CF00400#F0FFA2893600FFFF
(1700000054.580000) vcan0 0CF00400#F0FFA2853600FFFF
(1700000054.600000) vcan0 0CF00400#F0FFA2813600FFFF
(1700000054.600000) vcan0 18FEF100#FFA75BFFFFFFFFFF
(1700000054.620000) vcan0 0CF00400#F0FFA27E3600FFFF
(1700000054.640000) vcan0 0CF00400#F0FFA27B3600FFFF
(1700000054.660000) vcan0 0CF00400#F0FFA2783600FFFF
(1700000054.680000) vcan0 0CF00400#F0FFA2753600FFFF
(1700000054.700000) vcan0 0CF00400#F0FFA2723600FFFF
(1700000054.700000) vcan0 18FEF100#FF985BFFFFFFFFFF
(1700000054.720000) vcan0 0CF00400#F0FFA26F3600FFFF
(1700000054.740000) vcan0 0CF00400#F0FFA26D3600FFFF
(1700000054.760000) vcan0 0CF00400#F0FFA26B3600FFFF
(1700000054.780000) vcan0 0CF00400#F0FFA2693600FFFF
(1700000054.800000) vcan0 0CF00400#F0FFA2673600FFFF
(1700000054.800000) vcan0 18FEF100#FF885BFFFFFFFFFF
(1700000054.820000) vcan0 0CF00400#F0FFA2653600FFFF
(1700000054.840000) vcan0 0CF00400#F0FFA2643600FFFF
(1700000054.860000) vcan0 0CF00400#F0FFA2633600FFFF
(1700000054.880000) vcan0 0CF00400#F0FFA2623600FFFF
(1700000054.900000) vcan0 0CF00400#F0FFA2613600FFFF
(1700000054.900000) vcan0 18FEF100#FF775BFFFFFFFFFF
(1700000054.920000) vcan0 0CF00400#F0FFA2603600FFFF
(1700000054.940000) vcan0 0CF00400#F0FFA2603600FFFF
(1700000054.960000) vcan0 0CF00400#F0FFA2603600FFFF
(1700000054.980000) vcan0 0CF00400#F0FFA2603600FFFF
(1700000055.000000) vcan0 0CF00400#F0FFA2603600FFFF
(1700000055.000000) vcan0 18FEF100#FF665BFFFFFFFFFF
(1700000055.000000) vcan0 18FEEE00#7DFF002EFFFFFFFF
