(1700000028.400000) vcan0 0CF00400#F0FFA2033800FFFF
(1700000028.400000) vcan0 18FEF100#FFFE5BFFFFFFFFFF
(1700000028.420000) vcan0 0CF00400#F0FFA2FA3700FFFF
(1700000028.440000) vcan0 0CF00400#F0FFA2F03700FFFF
(1700000028.460000) vcan0 0CF00400#F0FFA2E73700FFFF
(1700000028.480000) vcan0 0CF00400#F0FFA2DD3700FFFF
(1700000028.500000) vcan0 0CF00400#F0FFA2D43700FFFF
(1700000028.500000) vcan0 18FEF100#FFFC5BFFFFFFFFFF
(1700000028.500000) vcan0 1CECFF00#200A0002FFCAFE00
(1700000028.520000) vcan0 0CF00400#F0FFA2CB3700FFFF
(1700000028.540000) vcan0 0CF00400#F0FFA2C13700FFFF
(1700000028.560000) vcan0 0CF00400#F0FFA2B83700FFFF
(1700000028.580000) vcan0 0CF00400#F0FFA2AF3700FFFF
(1700000028.600000) vcan0 0CF00400#F0FFA2A63700FFFF
(1700000028.600000) vcan0 18FEF100#FFF95BFFFFFFFFFF
(1700000028.600000) vcan0 1CEBFF00#02001001FFFFFFFF
(1700000028.620000) vcan0 0CF00400#F0FFA29D3700FFFF
(1700000028.640000) vcan0 0CF00400#F0FFA2943700FFFF
(1700000028.660000) vcan0 0CF00400#F0FFA28B3700FFFF
(1700000028.680000) vcan0 0CF00400#F0FFA2823700FFFF
(1700000028.700000) vcan0 0CF00400#F0FFA2793700FFFF
(1700000028.700000) vcan0 18FEF100#FFF45BFFFFFFFFFF
(1700000028.720000) vcan0 0CF00400#F0FFA2713700FFFF
(1700000028.740000) vcan0 0CF00400#F0FFA2683700FFFF
(1700000028.760000) vcan0 0CF00400#F0FFA25F3700FFFF
(1700000028.780000) vcan0 0CF00400#F0FFA2573700FFFF
(1700000028.800000) vcan0 0CF00400#F0FFA24F3700FFFF
(1700000028.800000) vcan0 18FEF100#FFEE5BFFFFFFFFFF
(1700000028.820000) vcan0 0CF00400#F0FFA2463700FFFF
(1700000028.840000) vcan0 0CF00400#F0FFA23E3700FFFF
(1700000028.860000) vcan0 0CF00400#F0FFA2363700FFFF
(1700000028.880000) vcan0 0CF00400#F0FFA22E3700FFFF
(1700000028.900000) vcan0 0CF00400#F0FFA2263700FFFF
(1700000028.900000) vcan0 18FEF100#FFE75BFFFFFFFFFF
(1700000028.920000) vcan0 0CF00400#F0FFA21F3700FFFF
(1700000028.940000) vcan0 0CF00400#F0FFA2173700FFFF
(1700000028.960000) vcan0 0CF00400#F0FFA2103700FFFF
(1700000028.980000) vcan0 0CF00400#F0FFA2083700FFFF
(1700000029.000000) vcan0 0CF00400#F0FFA2013700FFFF
(1700000029.000000) vcan0 18FEF100#FFDE5BFFFFFFFFFF
(1700000029.000000) vcan0 18FEEE00#98FF6031FFFFFFFF
(1700000029.020000) vcan0 0CF00400#F0FFA2FA3600FFFF
(1700000029.040000) vcan0 0CF00400#F0FFA2F33600FFFF
(1700000029.060000) vcan0 0CF00400#F0FFA2EC3600FFFF
(1700000029.080000) vcan0 0CF00400#F0FFA2E53600FFFF
(1700000029.100000) vcan0 0CF00400#F0FFA2DF3600FFFF
(1700000029.100000) vcan0 18FEF100#FFD45BFFFFFFFFFF
(1700000029.120000) vcan0 0CF00400#F0FFA2D83600FFFF
(1700000029.140000) vcan0 0CF00400#F0FFA2D23600FFFF
(1700000029.160000) vcan0 0CF00400#F0FFA2CC3600FFFF
(1700000029.180000) vcan0 0CF00400#F0FFA2C63600FFFF
(1700000029.200000) vcan0 0CF00400#F0FFA2C03600FFFF
(1700000029.200000) vcan0 18FEF100#FFCA5BFFFFFFFFFF
(1700000029.220000) vcan0 0CF00400#F0FFA2BA3600FFFF
(1700000029.240000) vcan0 0CF00400#F0FFA2B53600FFFF
(1700000029.260000) vcan0 0CF00400#F0FFA2AF3600FFFF
(1700000029.280000) vcan0 0CF00400#F0FFA2AA3600FFFF
(1700000029.300000) vcan0 0CF00400#F0FFA2A53600FFFF
(1700000029.300000) vcan0 18FEF100#FFBE5BFFFFFFFFFF
(1700000029.320000) vcan0 0CF00400#F0FFA2A03600FFFF
(1700000029.340000) vcan0 0CF00400#F0FFA29B3600FFFF
(1700000029.360000) vcan0 0CF00400#F0FFA2973600FFFF
(1700000029.380000) vcan0 0CF00400#F0FFA2923600FFFF
(1700000029.400000) vcan0 0CF00400#F0FFA28E3600FFFF
(1700000029.400000) vcan0 18FEF100#FFB15BFFFFFFFFFF
(1700000029.420000) vcan0 0CF00400#F0FFA28A3600FFFF
(1700000029.440000) vcan0 0CF00400#F0FFA2863600FFFF
(1700000029.460000) vcan0 0CF00400#F0FFA2833600FFFF
(1700000029.480000) vcan0 0CF00400#F0FFA27F3600FFFF
(1700000029.500000) vcan0 0CF00400#F0FFA27C3600FFFF
(1700000029.500000) vcan0 18FEF100#FFA25BFFFFFFFFFF
(1700000029.500000) vcan0 1CECFF00#200A0002FFCAFE00
(1700000029.520000) vcan0 0CF00400#F0FFA2793600FFFF
(1700000029.540000) vcan0 0CF00400#F0FFA2763600FFFF
(1700000029.560000) vcan0 0CF00400#F0FFA2733600FFFF
(1700000029.580000) vcan0 0CF00400#F0FFA2703600FFFF
(1700000029.600000) vcan0 0CF00400#F0FFA26E3600FFFF
(1700000029.600000) vcan0 18FEF100#FF935BFFFFFFFFFF
(1700000029.600000) vcan0 1CEBFF00#02001001FFFFFFFF
(1700000029.620000) vcan0 0CF00400#F0FFA26C3600FFFF
(1700000029.640000) vcan0 0CF00400#F0FFA26A3600FFFF
(1700000029.660000) vcan0 0CF00400#F0FFA2683600FFFF
(1700000029.680000) vcan0 0CF00400#F0FFA2663600FFFF
