(1700000000.000000) vcan0 0CF00400#F0FF91000000FFFF
(1700000000.000000) vcan0 18FEF100#FF0000FFFFFFFFFF
(1700000000.000000) vcan0 18FEEE00#6EFF202CFFFFFFFF
(1700000000.020000) vcan0 0CF00400#F0FF912A0000FFFF
(1700000000.040000) vcan0 0CF00400#F0FF91550000FFFF
(1700000000.060000) vcan0 0CF00400#F0FF91800000FFFF
(1700000000.080000) vcan0 0CF00400#F0FF91AA0000FFFF
(1700000000.100000) vcan0 0CF00400#F0FF91D50000FFFF
(1700000000.100000) vcan0 18FEF100#FF0000FFFFFFFFFF
(1700000000.120000) vcan0 0CF00400#F0FF91000100FFFF
(1700000000.140000) vcan0 0CF00400#F0FF912A0100FFFF
(1700000000.160000) vcan0 0CF00400#F0FF91550100FFFF
(1700000000.180000) vcan0 0CF00400#F0FF91800100FFFF
(1700000000.200000) vcan0 0CF00400#F0FF91AA0100FFFF
(1700000000.200000) vcan0 18FEF100#FF0000FFFFFFFFFF
(1700000000.220000) vcan0 0CF00400#F0FF91D50100FFFF
(1700000000.240000) vcan0 0CF00400#F0FF91000200FFFF
(1700000000.260000) vcan0 0CF00400#F0FF912A0200FFFF
(1700000000.280000) vcan0 0CF00400#F0FF91550200FFFF
(1700000000.300000) vcan0 0CF00400#F0FF91800200FFFF
(1700000000.300000) vcan0 18FEF100#FF0000FFFFFFFFFF
(1700000000.320000) vcan0 0CF00400#F0FF91AA0200FFFF
(1700000000.340000) vcan0 0CF00400#F0FF91D50200FFFF
(1700000000.360000) vcan0 0CF00400#F0FF91000300FFFF
(1700000000.380000) vcan0 0CF00400#F0FF922A0300FFFF
(1700000000.400000) vcan0 0CF00400#F0FF92550300FFFF
(1700000000.400000) vcan0 18FEF100#FF0000FFFFFFFFFF
(1700000000.420000) vcan0 0CF00400#F0FF92800300FFFF
(1700000000.440000) vcan0 0CF00400#F0FF92AA0300FFFF
(1700000000.460000) vcan0 0CF00400#F0FF92D50300FFFF
(1700000000.480000) vcan0 0CF00400#F0FF92000400FFFF
(1700000000.500000) vcan0 0CF00400#F0FF922A0400FFFF
(1700000000.500000) vcan0 18FEF100#FF0000FFFFFFFFFF
(1700000000.500000) vcan0 18FECA00#00FF00000000FFFF
(1700000000.520000) vcan0 0CF00400#F0FF92550400FFFF
(1700000000.540000) vcan0 0CF00400#F0FF92800400FFFF
(1700000000.560000) vcan0 0CF00400#F0FF92AA0400FFFF
(1700000000.580000) vcan0 0CF00400#F0FF92D50400FFFF
(1700000000.600000) vcan0 0CF00400#F0FF92000500FFFF
(1700000000.600000) vcan0 18FEF100#FF0000FFFFFFFFFF
(1700000000.620000) vcan0 0CF00400#F0FF922A0500FFFF
(1700000000.640000) vcan0 0CF00400#F0FF92550500FFFF
(1700000000.660000) vcan0 0CF00400#F0FF92800500FFFF
(1700000000.680000) vcan0 0CF00400#F0FF92AA0500FFFF
(1700000000.700000) vcan0 0CF00400#F0FF92D50500FFFF
(1700000000.700000) vcan0 18FEF100#FF0000FFFFFFFFFF
(1700000000.720000) vcan0 0CF00400#F0FF92000600FFFF
(1700000000.740000) vcan0 0CF00400#F0FF922A0600FFFF
(1700000000.760000) vcan0 0CF00400#F0FF93550600FFFF
(1700000000.780000) vcan0 0CF00400#F0FF93800600FFFF
(1700000000.800000) vcan0 0CF00400#F0FF93AA0600FFFF
(1700000000.800000) vcan0 18FEF100#FF0000FFFFFFFFFF
(1700000000.820000) vcan0 0CF00400#F0FF93D50600FFFF
(1700000000.840000) vcan0 0CF00400#F0FF93000700FFFF
(1700000000.860000) vcan0 0CF00400#F0FF932A0700FFFF
(1700000000.880000) vcan0 0CF00400#F0FF93550700FFFF
(1700000000.900000) vcan0 0CF00400#F0FF93800700FFFF
(1700000000.900000) vcan0 18FEF100#FF0000FFFFFFFFFF
(1700000000.920000) vcan0 0CF00400#F0FF93AA0700FFFF
(1700000000.940000) vcan0 0CF00400#F0FF93D50700FFFF
(1700000000.960000) vcan0 0CF00400#F0FF93000800FFFF
(1700000000.980000) vcan0 0CF00400#F0FF932A0800FFFF
(1700000001.000000) vcan0 0CF00400#F0FF93550800FFFF
(1700000001.000000) vcan0 18FEF100#FF0000FFFFFFFFFF
(1700000001.000000) vcan0 18FEEE00#6EFF202CFFFFFFFF
(1700000001.020000) vcan0 0CF00400#F0FF93800800FFFF
(1700000001.040000) vcan0 0CF00400#F0FF93AA0800FFFF
(1700000001.060000) vcan0 0CF00400#F0FF93D50800FFFF
(1700000001.080000) vcan0 0CF00400#F0FF93000900FFFF
(1700000001.100000) vcan0 0CF00400#F0FF932A0900FFFF
(1700000001.100000) vcan0 18FEF100#FF0000FFFFFFFFFF
(1700000001.120000) vcan0 0CF00400#F0FF93550900FFFF
(1700000001.140000) vcan0 0CF00400#F0FF947F0900FFFF
(1700000001.160000) vcan0 0CF00400#F0FF94AA0900FFFF
(1700000001.180000) vcan0 0CF00400#F0FF94D50900FFFF
(1700000001.200000) vcan0 0CF00400#F0FF94000A00FFFF
(1700000001.200000) vcan0 18FEF100#FF0000FFFFFFFFFF
(1700000001.220000) vcan0 0CF00400#F0FF942A0A00FFFF
(1700000001.240000) vcan0 0CF00400#F0FF94550A00FFFF
(1700000001.260000) vcan0 0CF00400#F0FF94800A00FFFF
(1700000001.280000) vcan0 0CF00400#F0FF94AA0A00FFFF
(1700000001.300000) vcan0 0CF00400#F0FF94D50A00FFFF
(1700000001.300000) vcan0 18FEF100#FF0000FFFFFFFFFF
(1700000001.320000) vcan0 0CF00400#F0FF94000B00FFFF
(1700000001.340000) vcan0 0CF00400#F0FF942A0B00FFFF
(1700000001.360000) vcan0 0CF00400#F0FF94550B00FFFF
(1700000001.380000) vcan0 0CF00400#F0FF94800B00FFFF
(1700000001.400000) vcan0 0CF00400#F0FF94AA0B00FFFF
(1700000001.400000) vcan0 18FEF100#FF0000FFFFFFFFFF
(1700000001.420000) vcan0 0CF00400#F0FF94D50B00FFFF
(1700000001.440000) vcan0 0CF00400#F0FF94000C00FFFF
(1700000001.460000) vcan0 0CF00400#F0FF942A0C00FFFF
(1700000001.480000) vcan0 0CF00400#F0FF94550C00FFFF
(1700000001.500000) vcan0 0CF00400#F0FF95800C00FFFF
(1700000001.500000) vcan0 18FEF100#FF0000FFFFFFFFFF
(1700000001.500000) vcan0 18FECA00#00FF00000000FFFF
(1700000001.520000) vcan0 0CF00400#F0FF95AA0C00FFFF
(1700000001.540000) vcan0 0CF00400#F0FF95D50C00FFFF
(1700000001.560000) vcan0 0CF00400#F0FF95000D00FFFF
(1700000001.580000) vcan0 0CF00400#F0FF952A0D00FFFF
(1700000001.600000) vcan0 0CF00400#F0FF95550D00FFFF
(1700000001.600000) vcan0 18FEF100#FF0000FFFFFFFFFF
(1700000001.620000) vcan0 0CF00400#F0FF95800D00FFFF
(1700000001.640000) vcan0 0CF00400#F0FF95AA0D00FFFF
(1700000001.660000) vcan0 0CF00400#F0FF95D50D00FFFF
(1700000001.680000) vcan0 0CF00400#F0FF95000E00FFFF
(1700000001.700000) vcan0 0CF00400#F0FF952A0E00FFFF
(1700000001.700000) vcan0 18FEF100#FF0000FFFFFFFFFF
(1700000001.720000) vcan0 0CF00400#F0FF95550E00FFFF
(1700000001.740000) vcan0 0CF00400#F0FF95800E00FFFF
(1700000001.760000) vcan0 0CF00400#F0FF95AA0E00FFFF
(1700000001.780000) vcan0 0CF00400#F0FF95D50E00FFFF
(1700000001.800000) vcan0 0CF00400#F0FF95000F00FFFF
(1700000001.800000) vcan0 18FEF100#FF0000FFFFFFFFFF
(1700000001.820000) vcan0 0CF00400#F0FF952A0F00FFFF
(1700000001.840000) vcan0 0CF00400#F0FF95550F00FFFF
(1700000001.860000) vcan0 0CF00400#F0FF95800F00FFFF
(1700000001.880000) vcan0 0CF00400#F0FF96AA0F00FFFF
(1700000001.900000) vcan0 0CF00400#F0FF96D50F00FFFF
(1700000001.900000) vcan0 18FEF100#FF0000FFFFFFFFFF
(1700000001.920000) vcan0 0CF00400#F0FF96001000FFFF
(1700000001.940000) vcan0 0CF00400#F0FF962A1000FFFF
(1700000001.960000) vcan0 0CF00400#F0FF96551000FFFF
(1700000001.980000) vcan0 0CF00400#F0FF96801000FFFF
(1700000002.000000) vcan0 0CF00400#F0FF96AA1000FFFF
(1700000002.000000) vcan0 18FEF100#FF0000FFFFFFFFFF
(1700000002.000000) vcan0 18FEEE00#6EFF202CFFFFFFFF
(1700000002.020000) vcan0 0CF00400#F0FF96D51000FFFF
(1700000002.040000) vcan0 0CF00400#F0FF96001100FFFF
(1700000002.060000) vcan0 0CF00400#F0FF962A1100FFFF
(1700000002.080000) vcan0 0CF00400#F0FF96551100FFFF
(1700000002.100000) vcan0 0CF00400#F0FF96801100FFFF
(1700000002.100000) vcan0 18FEF100#FF0000FFFFFFFFFF
(1700000002.120000) vcan0 0CF00400#F0FF96AA1100FFFF
(1700000002.140000) vcan0 0CF00400#F0FF96D51100FFFF
(1700000002.160000) vcan0 0CF00400#F0FF96001200FFFF
(1700000002.180000) vcan0 0CF00400#F0FF962A1200FFFF
(1700000002.200000) vcan0 0CF00400#F0FF96551200FFFF
(1700000002.200000) vcan0 18FEF100#FF0000FFFFFFFFFF
(1700000002.220000) vcan0 0CF00400#F0FF96801200FFFF
(1700000002.240000) vcan0 0CF00400#F0FF96AA1200FFFF
(1700000002.260000) vcan0 0CF00400#F0FF97D51200FFFF
(1700000002.280000) vcan0 0CF00400#F0FF97FF1200FFFF
(1700000002.300000) vcan0 0CF00400#F0FF972A1300FFFF
(1700000002.300000) vcan0 18FEF100#FF0000FFFFFFFFFF
(1700000002.320000) vcan0 0CF00400#F0FF97551300FFFF
(1700000002.340000) vcan0 0CF00400#F0FF97801300FFFF
(1700000002.360000) vcan0 0CF00400#F0FF97AA1300FFFF
(1700000002.380000) vcan0 0CF00400#F0FF97D51300FFFF
(1700000002.400000) vcan0 0CF00400#F0FF97001400FFFF
(1700000002.400000) vcan0 18FEF100#FF0000FFFFFFFFFF
(1700000002.420000) vcan0 0CF00400#F0FF972A1400FFFF
(1700000002.440000) vcan0 0CF00400#F0FF97551400FFFF
(1700000002.460000) vcan0 0CF00400#F0FF97801400FFFF
(1700000002.480000) vcan0 0CF00400#F0FF97AA1400FFFF
(1700000002.500000) vcan0 0CF00400#F0FF97D51400FFFF
(1700000002.500000) vcan0 18FEF100#FF0000FFFFFFFFFF
(1700000002.500000) vcan0 18FECA00#00FF00000000FFFF
(1700000002.520000) vcan0 0CF00400#F0FF97001500FFFF
(1700000002.540000) vcan0 0CF00400#F0FF972A1500FFFF
(1700000002.560000) vcan0 0CF00400#F0FF97551500FFFF
(1700000002.580000) vcan0 0CF00400#F0FF97801500FFFF
(1700000002.600000) vcan0 0CF00400#F0FF97AA1500FFFF
(1700000002.600000) vcan0 18FEF100#FF0000FFFFFFFFFF
(1700000002.620000) vcan0 0CF00400#F0FF97D51500FFFF
(1700000002.640000) vcan0 0CF00400#F0FF98001600FFFF
(1700000002.660000) vcan0 0CF00400#F0FF982A1600FFFF
(1700000002.680000) vcan0 0CF00400#F0FF98551600FFFF
(1700000002.700000) vcan0 0CF00400#F0FF98801600FFFF
(1700000002.700000) vcan0 18FEF100#FF0000FFFFFFFFFF
(1700000002.720000) vcan0 0CF00400#F0FF98AA1600FFFF
(1700000002.740000) vcan0 0CF00400#F0FF98D51600FFFF
(1700000002.760000) vcan0 0CF00400#F0FF98001700FFFF
(1700000002.780000) vcan0 0CF00400#F0FF982A1700FFFF
(1700000002.800000) vcan0 0CF00400#F0FF98551700FFFF
(1700000002.800000) vcan0 18FEF100#FF0000FFFFFFFFFF
(1700000002.820000) vcan0 0CF00400#F0FF98801700FFFF
(1700000002.840000) vcan0 0CF00400#F0FF98AA1700FFFF
(1700000002.860000) vcan0 0CF00400#F0FF98D51700FFFF
(1700000002.880000) vcan0 0CF00400#F0FF98001800FFFF
(1700000002.900000) vcan0 0CF00400#F0FF982A1800FFFF
(1700000002.900000) vcan0 18FEF100#FF0000FFFFFFFFFF
(1700000002.920000) vcan0 0CF00400#F0FF98551800FFFF
(1700000002.940000) vcan0 0CF00400#F0FF98801800FFFF
(1700000002.960000) vcan0 0CF00400#F0FF98AA1800FFFF
(1700000002.980000) vcan0 0CF00400#F0FF98D51800FFFF
(1700000003.000000) vcan0 0CF00400#F0FF99001900FFFF
(1700000003.000000) vcan0 18FEF100#FF0000FFFFFFFFFF
(1700000003.000000) vcan0 18FEEE00#6EFF202CFFFFFFFF
(1700000003.020000) vcan0 0CF00400#F0FF99161900FFFF
(1700000003.040000) vcan0 0CF00400#F0FF992D1900FFFF
(1700000003.060000) vcan0 0CF00400#F0FF99441900FFFF
(1700000003.080000) vcan0 0CF00400#F0FF995B1900FFFF
(1700000003.100000) vcan0 0CF00400#F0FF99721900FFFF
(1700000003.100000) vcan0 18FEF100#FF0000FFFFFFFFFF
(1700000003.120000) vcan0 0CF00400#F0FF99891900FFFF
(1700000003.140000) vcan0 0CF00400#F0FF99A01900FFFF
(1700000003.160000) vcan0 0CF00400#F0FF99B61900FFFF
(1700000003.180000) vcan0 0CF00400#F0FF99CD1900FFFF
(1700000003.200000) vcan0 0CF00400#F0FF99E41900FFFF
(1700000003.200000) vcan0 18FEF100#FF0000FFFFFFFFFF
(1700000003.220000) vcan0 0CF00400#F0FF99FB1900FFFF
(1700000003.240000) vcan0 0CF00400#F0FF99121A00FFFF
(1700000003.260000) vcan0 0CF00400#F0FF99291A00FFFF
(1700000003.280000) vcan0 0CF00400#F0FF99401A00FFFF
(1700000003.300000) vcan0 0CF00400#F0FF99561A00FFFF
(1700000003.300000) vcan0 18FEF100#FF0000FFFFFFFFFF
(1700000003.320000) vcan0 0CF00400#F0FF996D1A00FFFF
(1700000003.340000) vcan0 0CF00400#F0FF99841A00FFFF
(1700000003.360000) vcan0 0CF00400#F0FF999B1A00FFFF
(1700000003.380000) vcan0 0CF00400#F0FF99B21A00FFFF
(1700000003.400000) vcan0 0CF00400#F0FF99C91A00FFFF
(1700000003.400000) vcan0 18FEF100#FF0000FFFFFFFFFF
(1700000003.420000) vcan0 0CF00400#F0FF99E01A00FFFF
(1700000003.440000) vcan0 0CF00400#F0FF99F61A00FFFF
(1700000003.460000) vcan0 0CF00400#F0FF990D1B00FFFF
(1700000003.480000) vcan0 0CF00400#F0FF99241B00FFFF
(1700000003.500000) vcan0 0CF00400#F0FF993B1B00FFFF
(1700000003.500000) vcan0 18FEF100#FF0000FFFFFFFFFF
(1700000003.500000) vcan0 18FECA00#00FF00000000FFFF
(1700000003.520000) vcan0 0CF00400#F0FF99521B00FFFF
(1700000003.540000) vcan0 0CF00400#F0FF99691B00FFFF
(1700000003.560000) vcan0 0CF00400#F0FF99801B00FFFF
(1700000003.580000) vcan0 0CF00400#F0FF99961B00FFFF
(1700000003.600000) vcan0 0CF00400#F0FF99AD1B00FFFF
(1700000003.600000) vcan0 18FEF100#FF0000FFFFFFFFFF
(1700000003.620000) vcan0 0CF00400#F0FF99C41B00FFFF
(1700000003.640000) vcan0 0CF00400#F0FF99DB1B00FFFF
(1700000003.660000) vcan0 0CF00400#F0FF99F21B00FFFF
(1700000003.680000) vcan0 0CF00400#F0FF99091C00FFFF
(1700000003.700000) vcan0 0CF00400#F0FF9A201C00FFFF
(1700000003.700000) vcan0 18FEF100#FF0000FFFFFFFFFF
(1700000003.720000) vcan0 0CF00400#F0FF9A361C00FFFF
(1700000003.740000) vcan0 0CF00400#F0FF9A4D1C00FFFF
(1700000003.760000) vcan0 0CF00400#F0FF9A641C00FFFF
(1700000003.780000) vcan0 0CF00400#F0FF9A7B1C00FFFF
(1700000003.800000) vcan0 0CF00400#F0FF9A921C00FFFF
(1700000003.800000) vcan0 18FEF100#FF0000FFFFFFFFFF
(1700000003.820000) vcan0 0CF00400#F0FF9AA91C00FFFF
(1700000003.840000) vcan0 0CF00400#F0FF9AC01C00FFFF
(1700000003.860000) vcan0 0CF00400#F0FF9AD61C00FFFF
(1700000003.880000) vcan0 0CF00400#F0FF9AED1C00FFFF
(1700000003.900000) vcan0 0CF00400#F0FF9A041D00FFFF
(1700000003.900000) vcan0 18FEF100#FF0000FFFFFFFFFF
(1700000003.920000) vcan0 0CF00400#F0FF9A1B1D00FFFF
(1700000003.940000) vcan0 0CF00400#F0FF9A321D00FFFF
(1700000003.960000) vcan0 0CF00400#F0FF9A491D00FFFF
(1700000003.980000) vcan0 0CF00400#F0FF9A601D00FFFF
(1700000004.000000) vcan0 0CF00400#F0FF9A761D00FFFF
(1700000004.000000) vcan0 18FEF100#FF0000FFFFFFFFFF
(1700000004.000000) vcan0 18FEEE00#6EFF202CFFFFFFFF
(1700000004.020000) vcan0 0CF00400#F0FF9A8D1D00FFFF
(1700000004.040000) vcan0 0CF00400#F0FF9AA41D00FFFF
(1700000004.060000) vcan0 0CF00400#F0FF9ABB1D00FFFF
(1700000004.080000) vcan0 0CF00400#F0FF9AD21D00FFFF
(1700000004.100000) vcan0 0CF00400#F0FF9AE91D00FFFF
(1700000004.100000) vcan0 18FEF100#FF0000FFFFFFFFFF
(1700000004.120000) vcan0 0CF00400#F0FF9A001E00FFFF
(1700000004.140000) vcan0 0CF00400#F0FF9A161E00FFFF
(1700000004.160000) vcan0 0CF00400#F0FF9A2D1E00FFFF
(1700000004.180000) vcan0 0CF00400#F0FF9A441E00FFFF
(1700000004.200000) vcan0 0CF00400#F0FF9A5B1E00FFFF
(1700000004.200000) vcan0 18FEF100#FF0000FFFFFFFFFF
(1700000004.220000) vcan0 0CF00400#F0FF9A721E00FFFF
(1700000004.240000) vcan0 0CF00400#F0FF9A891E00FFFF
(1700000004.260000) vcan0 0CF00400#F0FF9AA01E00FFFF
(1700000004.280000) vcan0 0CF00400#F0FF9AB61E00FFFF
(1700000004.300000) vcan0 0CF00400#F0FF9ACD1E00FFFF
(1700000004.300000) vcan0 18FEF100#FF0000FFFFFFFFFF
(1700000004.320000) vcan0 0CF00400#F0FF9AE41E00FFFF
(1700000004.340000) vcan0 0CF00400#F0FF9AFB1E00FFFF
(1700000004.360000) vcan0 0CF00400#F0FF9A121F00FFFF
(1700000004.380000) vcan0 0CF00400#F0FF9A291F00FFFF
(1700000004.400000) vcan0 0CF00400#F0FF9B401F00FFFF
(1700000004.400000) vcan0 18FEF100#FF0000FFFFFFFFFF
(1700000004.420000) vcan0 0CF00400#F0FF9B561F00FFFF
(1700000004.440000) vcan0 0CF00400#F0FF9B6D1F00FFFF
(1700000004.460000) vcan0 0CF00400#F0FF9B841F00FFFF
(1700000004.480000) vcan0 0CF00400#F0FF9B9B1F00FFFF
(1700000004.500000) vcan0 0CF00400#F0FF9BB21F00FFFF
(1700000004.500000) vcan0 18FEF100#FF0000FFFFFFFFFF
(1700000004.500000) vcan0 18FECA00#00FF00000000FFFF
(1700000004.520000) vcan0 0CF00400#F0FF9BC91F00FFFF
(1700000004.540000) vcan0 0CF00400#F0FF9BE01F00FFFF
(1700000004.560000) vcan0 0CF00400#F0FF9BF61F00FFFF
(1700000004.580000) vcan0 0CF00400#F0FF9B0D2000FFFF
(1700000004.600000) vcan0 0CF00400#F0FF9B242000FFFF
(1700000004.600000) vcan0 18FEF100#FF0000FFFFFFFFFF
(1700000004.620000) vcan0 0CF00400#F0FF9B3B2000FFFF
(1700000004.640000) vcan0 0CF00400#F0FF9B522000FFFF
(1700000004.660000) vcan0 0CF00400#F0FF9B692000FFFF
(1700000004.680000) vcan0 0CF00400#F0FF9B802000FFFF
(1700000004.700000) vcan0 0CF00400#F0FF9B962000FFFF
(1700000004.700000) vcan0 18FEF100#FF0000FFFFFFFFFF
(1700000004.720000) vcan0 0CF00400#F0FF9BAD2000FFFF
(1700000004.740000) vcan0 0CF00400#F0FF9BC42000FFFF
(1700000004.760000) vcan0 0CF00400#F0FF9BDB2000FFFF
(1700000004.780000) vcan0 0CF00400#F0FF9BF22000FFFF
(1700000004.800000) vcan0 0CF00400#F0FF9B092100FFFF
(1700000004.800000) vcan0 18FEF100#FF0000FFFFFFFFFF
(1700000004.820000) vcan0 0CF00400#F0FF9B202100FFFF
(1700000004.840000) vcan0 0CF00400#F0FF9B362100FFFF
(1700000004.860000) vcan0 0CF00400#F0FF9B4D2100FFFF
(1700000004.880000) vcan0 0CF00400#F0FF9B642100FFFF
(1700000004.900000) vcan0 0CF00400#F0FF9B7B2100FFFF
(1700000004.900000) vcan0 18FEF100#FF0000FFFFFFFFFF
(1700000004.920000) vcan0 0CF00400#F0FF9B922100FFFF
(1700000004.940000) vcan0 0CF00400#F0FF9BA92100FFFF
(1700000004.960000) vcan0 0CF00400#F0FF9BC02100FFFF
(1700000004.980000) vcan0 0CF00400#F0FF9BD62100FFFF
(1700000005.000000) vcan0 0CF00400#F0FF9BED2100FFFF
(1700000005.000000) vcan0 18FEF100#FF0000FFFFFFFFFF
(1700000005.000000) vcan0 18FEEE00#6EFF202CFFFFFFFF
(1700000005.020000) vcan0 0CF00400#F0FF9B042200FFFF
(1700000005.040000) vcan0 0CF00400#F0FF9B1B2200FFFF
(1700000005.060000) vcan0 0CF00400#F0FF9B322200FFFF
(1700000005.080000) vcan0 0CF00400#F0FF9B492200FFFF
(1700000005.100000) vcan0 0CF00400#F0FF9C602200FFFF
(1700000005.100000) vcan0 18FEF100#FFE600FFFFFFFFFF
(1700000005.120000) vcan0 0CF00400#F0FF9C762200FFFF
(1700000005.140000) vcan0 0CF00400#F0FF9C8D2200FFFF
(1700000005.160000) vcan0 0CF00400#F0FF9CA42200FFFF
(1700000005.180000) vcan0 0CF00400#F0FF9CBB2200FFFF
(1700000005.200000) vcan0 0CF00400#F0FF9CD22200FFFF
(1700000005.200000) vcan0 18FEF100#FFCC01FFFFFFFFFF
(1700000005.220000) vcan0 0CF00400#F0FF9CE92200FFFF
(1700000005.240000) vcan0 0CF00400#F0FF9C002300FFFF
(1700000005.260000) vcan0 0CF00400#F0FF9C162300FFFF
(1700000005.280000) vcan0 0CF00400#F0FF9C2D2300FFFF
(1700000005.300000) vcan0 0CF00400#F0FF9C442300FFFF
(1700000005.300000) vcan0 18FEF100#FFB302FFFFFFFFFF
(1700000005.320000) vcan0 0CF00400#F0FF9C5B2300FFFF
(1700000005.340000) vcan0 0CF00400#F0FF9C722300FFFF
(1700000005.360000) vcan0 0CF00400#F0FF9C892300FFFF
(1700000005.380000) vcan0 0CF00400#F0FF9CA02300FFFF
(1700000005.400000) vcan0 0CF00400#F0FF9CB62300FFFF
(1700000005.400000) vcan0 18FEF100#FF9903FFFFFFFFFF
(1700000005.420000) vcan0 0CF00400#F0FF9CCD2300FFFF
(1700000005.440000) vcan0 0CF00400#F0FF9CE42300FFFF
(1700000005.460000) vcan0 0CF00400#F0FF9CFB2300FFFF
(1700000005.480000) vcan0 0CF00400#F0FF9C122400FFFF
(1700000005.500000) vcan0 0CF00400#F0FF9C292400FFFF
(1700000005.500000) vcan0 18FEF100#FF8004FFFFFFFFFF
(1700000005.500000) vcan0 18FECA00#00FF00000000FFFF
(1700000005.520000) vcan0 0CF00400#F0FF9C402400FFFF
(1700000005.540000) vcan0 0CF00400#F0FF9C562400FFFF
(1700000005.560000) vcan0 0CF00400#F0FF9C6D2400FFFF
(1700000005.580000) vcan0 0CF00400#F0FF9C842400FFFF
(1700000005.600000) vcan0 0CF00400#F0FF9C9B2400FFFF
(1700000005.600000) vcan0 18FEF100#FF6605FFFFFFFFFF
(1700000005.620000) vcan0 0CF00400#F0FF9CB22400FFFF
(1700000005.640000) vcan0 0CF00400#F0FF9CC92400FFFF
(1700000005.660000) vcan0 0CF00400#F0FF9CE02400FFFF
(1700000005.680000) vcan0 0CF00400#F0FF9CF62400FFFF
(1700000005.700000) vcan0 0CF00400#F0FF9C0D2500FFFF
(1700000005.700000) vcan0 18FEF100#FF4C06FFFFFFFFFF
(1700000005.720000) vcan0 0CF00400#F0FF9C242500FFFF
(1700000005.740000) vcan0 0CF00400#F0FF9C3B2500FFFF
(1700000005.760000) vcan0 0CF00400#F0FF9C522500FFFF
(1700000005.780000) vcan0 0CF00400#F0FF9C692500FFFF
(1700000005.800000) vcan0 0CF00400#F0FF9D802500FFFF
(1700000005.800000) vcan0 18FEF100#FF3307FFFFFFFFFF
(1700000005.820000) vcan0 0CF00400#F0FF9D962500FFFF
(1700000005.840000) vcan0 0CF00400#F0FF9DAD2500FFFF
(1700000005.860000) vcan0 0CF00400#F0FF9DC42500FFFF
(1700000005.880000) vcan0 0CF00400#F0FF9DDB2500FFFF
(1700000005.900000) vcan0 0CF00400#F0FF9DF22500FFFF
(1700000005.900000) vcan0 18FEF100#FF1908FFFFFFFFFF
(1700000005.920000) vcan0 0CF00400#F0FF9D092600FFFF
(1700000005.940000) vcan0 0CF00400#F0FF9D202600FFFF
(1700000005.960000) vcan0 0CF00400#F0FF9D362600FFFF
(1700000005.980000) vcan0 0CF00400#F0FF9D4D2600FFFF
(1700000006.000000) vcan0 0CF00400#F0FF9D642600FFFF
(1700000006.000000) vcan0 18FEF100#FF0009FFFFFFFFFF
(1700000006.000000) vcan0 18FEEE00#6EFF202CFFFFFFFF
(1700000006.020000) vcan0 0CF00400#F0FF9D7B2600FFFF
(1700000006.040000) vcan0 0CF00400#F0FF9D922600FFFF
(1700000006.060000) vcan0 0CF00400#F0FF9DA92600FFFF
(1700000006.080000) vcan0 0CF00400#F0FF9DC02600FFFF
(1700000006.100000) vcan0 0CF00400#F0FF9DD62600FFFF
(1700000006.100000) vcan0 18FEF100#FFE609FFFFFFFFFF
(1700000006.120000) vcan0 0CF00400#F0FF9DED2600FFFF
(1700000006.140000) vcan0 0CF00400#F0FF9D042700FFFF
(1700000006.160000) vcan0 0CF00400#F0FF9D1B2700FFFF
(1700000006.180000) vcan0 0CF00400#F0FF9D322700FFFF
(1700000006.200000) vcan0 0CF00400#F0FF9D492700FFFF
(1700000006.200000) vcan0 18FEF100#FFCC0AFFFFFFFFFF
(1700000006.220000) vcan0 0CF00400#F0FF9D602700FFFF
(1700000006.240000) vcan0 0CF00400#F0FF9D762700FFFF
(1700000006.260000) vcan0 0CF00400#F0FF9D8D2700FFFF
(1700000006.280000) vcan0 0CF00400#F0FF9DA42700FFFF
(1700000006.300000) vcan0 0CF00400#F0FF9DBB2700FFFF
(1700000006.300000) vcan0 18FEF100#FFB30BFFFFFFFFFF
(1700000006.320000) vcan0 0CF00400#F0FF9DD22700FFFF
(1700000006.340000) vcan0 0CF00400#F0FF9DE92700FFFF
(1700000006.360000) vcan0 0CF00400#F0FF9D002800FFFF
(1700000006.380000) vcan0 0CF00400#F0FF9D162800FFFF
(1700000006.400000) vcan0 0CF00400#F0FF9D2D2800FFFF
(1700000006.400000) vcan0 18FEF100#FF990CFFFFFFFFFF
(1700000006.420000) vcan0 0CF00400#F0FF9D442800FFFF
(1700000006.440000) vcan0 0CF00400#F0FF9D5B2800FFFF
(1700000006.460000) vcan0 0CF00400#F0FF9D722800FFFF
(1700000006.480000) vcan0 0CF00400#F0FF9D892800FFFF
(1700000006.500000) vcan0 0CF00400#F0FF9EA02800FFFF
(1700000006.500000) vcan0 18FEF100#FF800DFFFFFFFFFF
(1700000006.500000) vcan0 18FECA00#00FF00000000FFFF
(1700000006.520000) vcan0 0CF00400#F0FF9EB62800FFFF
(1700000006.540000) vcan0 0CF00400#F0FF9ECD2800FFFF
(1700000006.560000) vcan0 0CF00400#F0FF9EE42800FFFF
(1700000006.580000) vcan0 0CF00400#F0FF9EFB2800FFFF
(1700000006.600000) vcan0 0CF00400#F0FF9E122900FFFF
(1700000006.600000) vcan0 18FEF100#FF660EFFFFFFFFFF
(1700000006.620000) vcan0 0CF00400#F0FF9E292900FFFF
(1700000006.640000) vcan0 0CF00400#F0FF9E402900FFFF
(1700000006.660000) vcan0 0CF00400#F0FF9E562900FFFF
(1700000006.680000) vcan0 0CF00400#F0FF9E6D2900FFFF
(1700000006.700000) vcan0 0CF00400#F0FF9E842900FFFF
(1700000006.700000) vcan0 18FEF100#FF4C0FFFFFFFFFFF
(1700000006.720000) vcan0 0CF00400#F0FF9E9B2900FFFF
(1700000006.740000) vcan0 0CF00400#F0FF9EB22900FFFF
(1700000006.760000) vcan0 0CF00400#F0FF9EC92900FFFF
(1700000006.780000) vcan0 0CF00400#F0FF9EE02900FFFF
(1700000006.800000) vcan0 0CF00400#F0FF9EF62900FFFF
(1700000006.800000) vcan0 18FEF100#FF3310FFFFFFFFFF
(1700000006.820000) vcan0 0CF00400#F0FF9E0D2A00FFFF
(1700000006.840000) vcan0 0CF00400#F0FF9E242A00FFFF
(1700000006.860000) vcan0 0CF00400#F0FF9E3B2A00FFFF
(1700000006.880000) vcan0 0CF00400#F0FF9E522A00FFFF
(1700000006.900000) vcan0 0CF00400#F0FF9E692A00FFFF
(1700000006.900000) vcan0 18FEF100#FF1911FFFFFFFFFF
(1700000006.920000) vcan0 0CF00400#F0FF9E802A00FFFF
(1700000006.940000) vcan0 0CF00400#F0FF9E962A00FFFF
(1700000006.960000) vcan0 0CF00400#F0FF9EAD2A00FFFF
(1700000006.980000) vcan0 0CF00400#F0FF9EC42A00FFFF
(1700000007.000000) vcan0 0CF00400#F0FF9EDB2A00FFFF
(1700000007.000000) vcan0 18FEF100#FF0012FFFFFFFFFF
(1700000007.000000) vcan0 18FEEE00#6EFF202CFFFFFFFF
(1700000007.020000) vcan0 0CF00400#F0FF9EF22A00FFFF
(1700000007.040000) vcan0 0CF00400#F0FF9E092B00FFFF
(1700000007.060000) vcan0 0CF00400#F0FF9E202B00FFFF
(1700000007.080000) vcan0 0CF00400#F0FF9E362B00FFFF
(1700000007.100000) vcan0 0CF00400#F0FF9E4D2B00FFFF
(1700000007.100000) vcan0 18FEF100#FFE612FFFFFFFFFF
(1700000007.120000) vcan0 0CF00400#F0FF9E642B00FFFF
(1700000007.140000) vcan0 0CF00400#F0FF9E7B2B00FFFF
(1700000007.160000) vcan0 0CF00400#F0FF9E922B00FFFF
(1700000007.180000) vcan0 0CF00400#F0FF9EA92B00FFFF
(1700000007.200000) vcan0 0CF00400#F0FF9FC02B00FFFF
(1700000007.200000) vcan0 18FEF100#FFCC13FFFFFFFFFF
(1700000007.220000) vcan0 0CF00400#F0FF9FD62B00FFFF
(1700000007.240000) vcan0 0CF00400#F0FF9FED2B00FFFF
(1700000007.260000) vcan0 0CF00400#F0FF9F042C00FFFF
(1700000007.280000) vcan0 0CF00400#F0FF9F1B2C00FFFF
(1700000007.300000) vcan0 0CF00400#F0FF9F322C00FFFF
(1700000007.300000) vcan0 18FEF100#FFB314FFFFFFFFFF
(1700000007.320000) vcan0 0CF00400#F0FF9F492C00FFFF
(1700000007.340000) vcan0 0CF00400#F0FF9F602C00FFFF
(1700000007.360000) vcan0 0CF00400#F0FF9F762C00FFFF
(1700000007.380000) vcan0 0CF00400#F0FF9F8D2C00FFFF
(1700000007.400000) vcan0 0CF00400#F0FF9FA42C00FFFF
(1700000007.400000) vcan0 18FEF100#FF9915FFFFFFFFFF
(1700000007.420000) vcan0 0CF00400#F0FF9FBB2C00FFFF
(1700000007.440000) vcan0 0CF00400#F0FF9FD22C00FFFF
(1700000007.460000) vcan0 0CF00400#F0FF9FE92C00FFFF
(1700000007.480000) vcan0 0CF00400#F0FF9F002D00FFFF
(1700000007.500000) vcan0 0CF00400#F0FF9F162D00FFFF
(1700000007.500000) vcan0 18FEF100#FF8016FFFFFFFFFF
(1700000007.500000) vcan0 18FECA00#00FF00000000FFFF
(1700000007.520000) vcan0 0CF00400#F0FF9F2D2D00FFFF
(1700000007.540000) vcan0 0CF00400#F0FF9F442D00FFFF
(1700000007.560000) vcan0 0CF00400#F0FF9F5B2D00FFFF
(1700000007.580000) vcan0 0CF00400#F0FF9F722D00FFFF
(1700000007.600000) vcan0 0CF00400#F0FF9F892D00FFFF
(1700000007.600000) vcan0 18FEF100#FF6617FFFFFFFFFF
(1700000007.620000) vcan0 0CF00400#F0FF9FA02D00FFFF
(1700000007.640000) vcan0 0CF00400#F0FF9FB62D00FFFF
(1700000007.660000) vcan0 0CF00400#F0FF9FCD2D00FFFF
(1700000007.680000) vcan0 0CF00400#F0FF9FE42D00FFFF
(1700000007.700000) vcan0 0CF00400#F0FF9FFB2D00FFFF
(1700000007.700000) vcan0 18FEF100#FF4C18FFFFFFFFFF
(1700000007.720000) vcan0 0CF00400#F0FF9F122E00FFFF
(1700000007.740000) vcan0 0CF00400#F0FF9F292E00FFFF
(1700000007.760000) vcan0 0CF00400#F0FF9F402E00FFFF
(1700000007.780000) vcan0 0CF00400#F0FF9F562E00FFFF
(1700000007.800000) vcan0 0CF00400#F0FF9F6D2E00FFFF
(1700000007.800000) vcan0 18FEF100#FF3319FFFFFFFFFF
(1700000007.820000) vcan0 0CF00400#F0FF9F842E00FFFF
(1700000007.840000) vcan0 0CF00400#F0FF9F9B2E00FFFF
(1700000007.860000) vcan0 0CF00400#F0FF9FB22E00FFFF
(1700000007.880000) vcan0 0CF00400#F0FF9FC92E00FFFF
(1700000007.900000) vcan0 0CF00400#F0FFA0E02E00FFFF
(1700000007.900000) vcan0 18FEF100#FF191AFFFFFFFFFF
(1700000007.920000) vcan0 0CF00400#F0FFA0F62E00FFFF
(1700000007.940000) vcan0 0CF00400#F0FFA00D2F00FFFF
(1700000007.960000) vcan0 0CF00400#F0FFA0242F00FFFF
(1700000007.980000) vcan0 0CF00400#F0FFA03B2F00FFFF
(1700000008.000000) vcan0 0CF00400#F0FFA0522F00FFFF
(1700000008.000000) vcan0 18FEF100#FF001BFFFFFFFFFF
(1700000008.000000) vcan0 18FEEE00#6EFF202CFFFFFFFF
(1700000008.020000) vcan0 0CF00400#F0FFA0692F00FFFF
(1700000008.040000) vcan0 0CF00400#F0FFA0802F00FFFF
(1700000008.060000) vcan0 0CF00400#F0FFA0962F00FFFF
(1700000008.080000) vcan0 0CF00400#F0FFA0AD2F00FFFF
(1700000008.100000) vcan0 0CF00400#F0FFA0C42F00FFFF
(1700000008.100000) vcan0 18FEF100#FFE61BFFFFFFFFFF
(1700000008.120000) vcan0 0CF00400#F0FFA0DB2F00FFFF
(1700000008.140000) vcan0 0CF00400#F0FFA0F22F00FFFF
(1700000008.160000) vcan0 0CF00400#F0FFA0093000FFFF
(1700000008.180000) vcan0 0CF00400#F0FFA0203000FFFF
(1700000008.200000) vcan0 0CF00400#F0FFA0363000FFFF
(1700000008.200000) vcan0 18FEF100#FFCC1CFFFFFFFFFF
(1700000008.220000) vcan0 0CF00400#F0FFA04D3000FFFF
(1700000008.240000) vcan0 0CF00400#F0FFA0643000FFFF
(1700000008.260000) vcan0 0CF00400#F0FFA07B3000FFFF
(1700000008.280000) vcan0 0CF00400#F0FFA0923000FFFF
(1700000008.300000) vcan0 0CF00400#F0FFA0A93000FFFF
(1700000008.300000) vcan0 18FEF100#FFB31DFFFFFFFFFF
(1700000008.320000) vcan0 0CF00400#F0FFA0C03000FFFF
(1700000008.340000) vcan0 0CF00400#F0FFA0D63000FFFF
(1700000008.360000) vcan0 0CF00400#F0FFA0ED3000FFFF
(1700000008.380000) vcan0 0CF00400#F0FFA0043100FFFF
(1700000008.400000) vcan0 0CF00400#F0FFA01B3100FFFF
(1700000008.400000) vcan0 18FEF100#FF991EFFFFFFFFFF
(1700000008.420000) vcan0 0CF00400#F0FFA0323100FFFF
(1700000008.440000) vcan0 0CF00400#F0FFA0493100FFFF
(1700000008.460000) vcan0 0CF00400#F0FFA0603100FFFF
(1700000008.480000) vcan0 0CF00400#F0FFA0763100FFFF
(1700000008.500000) vcan0 0CF00400#F0FFA08D3100FFFF
(1700000008.500000) vcan0 18FEF100#FF801FFFFFFFFFFF
(1700000008.500000) vcan0 18FECA00#00FF00000000FFFF
(1700000008.520000) vcan0 0CF00400#F0FFA0A43100FFFF
(1700000008.540000) vcan0 0CF00400#F0FFA0BB3100FFFF
(1700000008.560000) vcan0 0CF00400#F0FFA0D23100FFFF
(1700000008.580000) vcan0 0CF00400#F0FFA0E93100FFFF
(1700000008.600000) vcan0 0CF00400#F0FFA1003200FFFF
(1700000008.600000) vcan0 18FEF100#FF6620FFFFFFFFFF
(1700000008.620000) vcan0 0CF00400#F0FFA1163200FFFF
(1700000008.640000) vcan0 0CF00400#F0FFA12D3200FFFF
(1700000008.660000) vcan0 0CF00400#F0FFA1443200FFFF
(1700000008.680000) vcan0 0CF00400#F0FFA15B3200FFFF
(1700000008.700000) vcan0 0CF00400#F0FFA1723200FFFF
(1700000008.700000) vcan0 18FEF100#FF4C21FFFFFFFFFF
(1700000008.720000) vcan0 0CF00400#F0FFA1893200FFFF
(1700000008.740000) vcan0 0CF00400#F0FFA1A03200FFFF
(1700000008.760000) vcan0 0CF00400#F0FFA1B63200FFFF
(1700000008.780000) vcan0 0CF00400#F0FFA1CD3200FFFF
(1700000008.800000) vcan0 0CF00400#F0FFA1E43200FFFF
(1700000008.800000) vcan0 18FEF100#FF3322FFFFFFFFFF
(1700000008.820000) vcan0 0CF00400#F0FFA1FB3200FFFF
(1700000008.840000) vcan0 0CF00400#F0FFA1123300FFFF
(1700000008.860000) vcan0 0CF00400#F0FFA1293300FFFF
(1700000008.880000) vcan0 0CF00400#F0FFA1403300FFFF
(1700000008.900000) vcan0 0CF00400#F0FFA1563300FFFF
(1700000008.900000) vcan0 18FEF100#FF1923FFFFFFFFFF
(1700000008.920000) vcan0 0CF00400#F0FFA16D3300FFFF
(1700000008.940000) vcan0 0CF00400#F0FFA1843300FFFF
(1700000008.960000) vcan0 0CF00400#F0FFA19B3300FFFF
(1700000008.980000) vcan0 0CF00400#F0FFA1B23300FFFF
(1700000009.000000) vcan0 0CF00400#F0FFA1C93300FFFF
(1700000009.000000) vcan0 18FEF100#FF0024FFFFFFFFFF
(1700000009.000000) vcan0 18FEEE00#70FF602CFFFFFFFF
(1700000009.020000) vcan0 0CF00400#F0FFA1E03300FFFF
(1700000009.040000) vcan0 0CF00400#F0FFA1F63300FFFF
(1700000009.060000) vcan0 0CF00400#F0FFA10D3400FFFF
(1700000009.080000) vcan0 0CF00400#F0FFA1243400FFFF
(1700000009.100000) vcan0 0CF00400#F0FFA13B3400FFFF
(1700000009.100000) vcan0 18FEF100#FFE624FFFFFFFFFF
(1700000009.120000) vcan0 0CF00400#F0FFA1523400FFFF
(1700000009.140000) vcan0 0CF00400#F0FFA1693400FFFF
(1700000009.160000) vcan0 0CF00400#F0FFA1803400FFFF
(1700000009.180000) vcan0 0CF00400#F0FFA1963400FFFF
(1700000009.200000) vcan0 0CF00400#F0FFA1AD3400FFFF
(1700000009.200000) vcan0 18FEF100#FFCC25FFFFFFFFFF
(1700000009.220000) vcan0 0CF00400#F0FFA1C43400FFFF
(1700000009.240000) vcan0 0CF00400#F0FFA1DB3400FFFF
(1700000009.260000) vcan0 0CF00400#F0FFA1F23400FFFF
(1700000009.280000) vcan0 0CF00400#F0FFA1093500FFFF
(1700000009.300000) vcan0 0CF00400#F0FFA2203500FFFF
(1700000009.300000) vcan0 18FEF100#FFB326FFFFFFFFFF
(1700000009.320000) vcan0 0CF00400#F0FFA2363500FFFF
(1700000009.340000) vcan0 0CF00400#F0FFA24D3500FFFF
(1700000009.360000) vcan0 0CF00400#F0FFA2643500FFFF
(1700000009.380000) vcan0 0CF00400#F0FFA27B3500FFFF
(1700000009.400000) vcan0 0CF00400#F0FFA2923500FFFF
(1700000009.400000) vcan0 18FEF100#FF9927FFFFFFFFFF
(1700000009.420000) vcan0 0CF00400#F0FFA2A93500FFFF
(1700000009.440000) vcan0 0CF00400#F0FFA2C03500FFFF
(1700000009.460000) vcan0 0CF00400#F0FFA2D63500FFFF
(1700000009.480000) vcan0 0CF00400#F0FFA2ED3500FFFF
(1700000009.500000) vcan0 0CF00400#F0FFA2043600FFFF
(1700000009.500000) vcan0 18FEF100#FF8028FFFFFFFFFF
(1700000009.500000) vcan0 18FECA00#00FF00000000FFFF
(1700000009.520000) vcan0 0CF00400#F0FFA21B3600FFFF
(1700000009.540000) vcan0 0CF00400#F0FFA2323600FFFF
(1700000009.560000) vcan0 0CF00400#F0FFA2493600FFFF
(1700000009.580000) vcan0 0CF00400#F0FFA2603600FFFF
(1700000009.600000) vcan0 0CF00400#F0FFA2763600FFFF
(1700000009.600000) vcan0 18FEF100#FF6629FFFFFFFFFF
(1700000009.620000) vcan0 0CF00400#F0FFA28D3600FFFF
(1700000009.640000) vcan0 0CF00400#F0FFA2A43600FFFF
(1700000009.660000) vcan0 0CF00400#F0FFA2BB3600FFFF
(1700000009.680000) vcan0 0CF00400#F0FFA2D23600FFFF
(1700000009.700000) vcan0 0CF00400#F0FFA2E93600FFFF
(1700000009.700000) vcan0 18FEF100#FF4C2AFFFFFFFFFF
(1700000009.720000) vcan0 0CF00400#F0FFA2003700FFFF
(1700000009.740000) vcan0 0CF00400#F0FFA2163700FFFF
(1700000009.760000) vcan0 0CF00400#F0FFA22D3700FFFF
(1700000009.780000) vcan0 0CF00400#F0FFA2443700FFFF
(1700000009.800000) vcan0 0CF00400#F0FFA25B3700FFFF
(1700000009.800000) vcan0 18FEF100#FF332BFFFFFFFFFF
(1700000009.820000) vcan0 0CF00400#F0FFA2723700FFFF
(1700000009.840000) vcan0 0CF00400#F0FFA2893700FFFF
(1700000009.860000) vcan0 0CF00400#F0FFA2A03700FFFF
(1700000009.880000) vcan0 0CF00400#F0FFA2B63700FFFF
(1700000009.900000) vcan0 0CF00400#F0FFA2CD3700FFFF
(1700000009.900000) vcan0 18FEF100#FF192CFFFFFFFFFF
(1700000009.920000) vcan0 0CF00400#F0FFA2E43700FFFF
(1700000009.940000) vcan0 0CF00400#F0FFA2FB3700FFFF
(1700000009.960000) vcan0 0CF00400#F0FFA2123800FFFF
(1700000009.980000) vcan0 0CF00400#F0FFA2293800FFFF
(1700000010.000000) vcan0 0CF00400#F0FFA23A3700FFFF
(1700000010.000000) vcan0 18FEF100#FF002DFFFFFFFFFF
(1700000010.000000) vcan0 18FEEE00#72FFA02CFFFFFFFF
(1700000010.020000) vcan0 0CF00400#F0FFA2323700FFFF
(1700000010.040000) vcan0 0CF00400#F0FFA22A3700FFFF
(1700000010.060000) vcan0 0CF00400#F0FFA2233700FFFF
(1700000010.080000) vcan0 0CF00400#F0FFA21B3700FFFF
(1700000010.100000) vcan0 0CF00400#F0FFA2133700FFFF
(1700000010.100000) vcan0 18FEF100#FFE62DFFFFFFFFFF
(1700000010.120000) vcan0 0CF00400#F0FFA20C3700FFFF
(1700000010.140000) vcan0 0CF00400#F0FFA2053700FFFF
(1700000010.160000) vcan0 0CF00400#F0FFA2FE3600FFFF
(1700000010.180000) vcan0 0CF00400#F0FFA2F63600FFFF
(1700000010.200000) vcan0 0CF00400#F0FFA2F03600FFFF
(1700000010.200000) vcan0 18FEF100#FFCC2EFFFFFFFFFF
(1700000010.220000) vcan0 0CF00400#F0FFA2E93600FFFF
(1700000010.240000) vcan0 0CF00400#F0FFA2E23600FFFF
(1700000010.260000) vcan0 0CF00400#F0FFA2DC3600FFFF
(1700000010.280000) vcan0 0CF00400#F0FFA2D53600FFFF
(1700000010.300000) vcan0 0CF00400#F0FFA2CF3600FFFF
(1700000010.300000) vcan0 18FEF100#FFB32FFFFFFFFFFF
(1700000010.320000) vcan0 0CF00400#F0FFA2C93600FFFF
(1700000010.340000) vcan0 0CF00400#F0FFA2C33600FFFF
(1700000010.360000) vcan0 0CF00400#F0FFA2BD3600FFFF
(1700000010.380000) vcan0 0CF00400#F0FFA2B83600FFFF
(1700000010.400000) vcan0 0CF00400#F0FFA2B23600FFFF
(1700000010.400000) vcan0 18FEF100#FF9930FFFFFFFFFF
(1700000010.420000) vcan0 0CF00400#F0FFA2AD3600FFFF
(1700000010.440000) vcan0 0CF00400#F0FFA2A83600FFFF
(1700000010.460000) vcan0 0CF00400#F0FFA2A33600FFFF
(1700000010.480000) vcan0 0CF00400#F0FFA29E3600FFFF
(1700000010.500000) vcan0 0CF00400#F0FFA2993600FFFF
(1700000010.500000) vcan0 18FEF100#FF8031FFFFFFFFFF
(1700000010.500000) vcan0 18FECA00#00FF00000000FFFF
(1700000010.520000) vcan0 0CF00400#F0FFA2953600FFFF
(1700000010.540000) vcan0 0CF00400#F0FFA2903600FFFF
(1700000010.560000) vcan0 0CF00400#F0FFA28C3600FFFF
(1700000010.580000) vcan0 0CF00400#F0FFA2883600FFFF
(1700000010.600000) vcan0 0CF00400#F0FFA2853600FFFF
(1700000010.600000) vcan0 18FEF100#FF6632FFFFFFFFFF
(1700000010.620000) vcan0 0CF00400#F0FFA2813600FFFF
(1700000010.640000) vcan0 0CF00400#F0FFA27E3600FFFF
(1700000010.660000) vcan0 0CF00400#F0FFA27A3600FFFF
(1700000010.680000) vcan0 0CF00400#F0FFA2773600FFFF
(1700000010.700000) vcan0 0CF00400#F0FFA2743600FFFF
(1700000010.700000) vcan0 18FEF100#FF4C33FFFFFFFFFF
(1700000010.720000) vcan0 0CF00400#F0FFA2723600FFFF
(1700000010.740000) vcan0 0CF00400#F0FFA26F3600FFFF
(1700000010.760000) vcan0 0CF00400#F0FFA26D3600FFFF
(1700000010.780000) vcan0 0CF00400#F0FFA26B3600FFFF
(1700000010.800000) vcan0 0CF00400#F0FFA2693600FFFF
(1700000010.800000) vcan0 18FEF100#FF3334FFFFFFFFFF
(1700000010.820000) vcan0 0CF00400#F0FFA2673600FFFF
(1700000010.840000) vcan0 0CF00400#F0FFA2653600FFFF
(1700000010.860000) vcan0 0CF00400#F0FFA2643600FFFF
(1700000010.880000) vcan0 0CF00400#F0FFA2633600FFFF
(1700000010.900000) vcan0 0CF00400#F0FFA2623600FFFF
(1700000010.900000) vcan0 18FEF100#FF1935FFFFFFFFFF
(1700000010.920000) vcan0 0CF00400#F0FFA2613600FFFF
(1700000010.940000) vcan0 0CF00400#F0FFA2603600FFFF
(1700000010.960000) vcan0 0CF00400#F0FFA2603600FFFF
(1700000010.980000) vcan0 0CF00400#F0FFA2603600FFFF
(1700000011.000000) vcan0 0CF00400#F0FFA2603600FFFF
(1700000011.000000) vcan0 18FEF100#FF0036FFFFFFFFFF
(1700000011.000000) vcan0 18FEEE00#74FFE02CFFFFFFFF
(1700000011.020000) vcan0 0CF00400#F0FFA2603600FFFF
(1700000011.040000) vcan0 0CF00400#F0FFA2603600FFFF
(1700000011.060000) vcan0 0CF00400#F0FFA2603600FFFF
(1700000011.080000) vcan0 0CF00400#F0FFA2613600FFFF
(1700000011.100000) vcan0 0CF00400#F0FFA2623600FFFF
(1700000011.100000) vcan0 18FEF100#FFE636FFFFFFFFFF
(1700000011.120000) vcan0 0CF00400#F0FFA2633600FFFF
(1700000011.140000) vcan0 0CF00400#F0FFA2643600FFFF
(1700000011.160000) vcan0 0CF00400#F0FFA2663600FFFF
(1700000011.180000) vcan0 0CF00400#F0FFA2683600FFFF
(1700000011.200000) vcan0 0CF00400#F0FFA2693600FFFF
(1700000011.200000) vcan0 18FEF100#FFCC37FFFFFFFFFF
(1700000011.220000) vcan0 0CF00400#F0FFA26C3600FFFF
(1700000011.240000) vcan0 0CF00400#F0FFA26E3600FFFF
(1700000011.260000) vcan0 0CF00400#F0FFA2703600FFFF
(1700000011.280000) vcan0 0CF00400#F0FFA2733600FFFF
(1700000011.300000) vcan0 0CF00400#F0FFA2763600FFFF
(1700000011.300000) vcan0 18FEF100#FFB338FFFFFFFFFF
(1700000011.320000) vcan0 0CF00400#F0FFA2793600FFFF
(1700000011.340000) vcan0 0CF00400#F0FFA27C3600FFFF
(1700000011.360000) vcan0 0CF00400#F0FFA27F3600FFFF
(1700000011.380000) vcan0 0CF00400#F0FFA2833600FFFF
(1700000011.400000) vcan0 0CF00400#F0FFA2863600FFFF
(1700000011.400000) vcan0 18FEF100#FF9939FFFFFFFFFF
(1700000011.420000) vcan0 0CF00400#F0FFA28A3600FFFF
(1700000011.440000) vcan0 0CF00400#F0FFA28E3600FFFF
(1700000011.460000) vcan0 0CF00400#F0FFA2923600FFFF
(1700000011.480000) vcan0 0CF00400#F0FFA2973600FFFF
(1700000011.500000) vcan0 0CF00400#F0FFA29B3600FFFF
(1700000011.500000) vcan0 18FEF100#FF803AFFFFFFFFFF
(1700000011.500000) vcan0 18FECA00#00FF00000000FFFF
(1700000011.520000) vcan0 0CF00400#F0FFA2A03600FFFF
(1700000011.540000) vcan0 0CF00400#F0FFA2A53600FFFF
(1700000011.560000) vcan0 0CF00400#F0FFA2AA3600FFFF
(1700000011.580000) vcan0 0CF00400#F0FFA2AF3600FFFF
(1700000011.600000) vcan0 0CF00400#F0FFA2B53600FFFF
(1700000011.600000) vcan0 18FEF100#FF663BFFFFFFFFFF
(1700000011.620000) vcan0 0CF00400#F0FFA2BA3600FFFF
(1700000011.640000) vcan0 0CF00400#F0FFA2C03600FFFF
(1700000011.660000) vcan0 0CF00400#F0FFA2C63600FFFF
(1700000011.680000) vcan0 0CF00400#F0FFA2CC3600FFFF
(1700000011.700000) vcan0 0CF00400#F0FFA2D23600FFFF
(1700000011.700000) vcan0 18FEF100#FF4C3CFFFFFFFFFF
(1700000011.720000) vcan0 0CF00400#F0FFA2D83600FFFF
(1700000011.740000) vcan0 0CF00400#F0FFA2DE3600FFFF
(1700000011.760000) vcan0 0CF00400#F0FFA2E53600FFFF
(1700000011.780000) vcan0 0CF00400#F0FFA2EC3600FFFF
(1700000011.800000) vcan0 0CF00400#F0FFA2F33600FFFF
(1700000011.800000) vcan0 18FEF100#FF333DFFFFFFFFFF
(1700000011.820000) vcan0 0CF00400#F0FFA2FA3600FFFF
(1700000011.840000) vcan0 0CF00400#F0FFA2013700FFFF
(1700000011.860000) vcan0 0CF00400#F0FFA2083700FFFF
(1700000011.880000) vcan0 0CF00400#F0FFA20F3700FFFF
(1700000011.900000) vcan0 0CF00400#F0FFA2173700FFFF
(1700000011.900000) vcan0 18FEF100#FF193EFFFFFFFFFF
(1700000011.920000) vcan0 0CF00400#F0FFA21E3700FFFF
(1700000011.940000) vcan0 0CF00400#F0FFA2263700FFFF
(1700000011.960000) vcan0 0CF00400#F0FFA22E3700FFFF
(1700000011.980000) vcan0 0CF00400#F0FFA2363700FFFF
(1700000012.000000) vcan0 0CF00400#F0FFA23E3700FFFF
(1700000012.000000) vcan0 18FEF100#FF003FFFFFFFFFFF
(1700000012.000000) vcan0 18FEEE00#76FF202DFFFFFFFF
(1700000012.020000) vcan0 0CF00400#F0FFA2463700FFFF
(1700000012.040000) vcan0 0CF00400#F0FFA24E3700FFFF
(1700000012.060000) vcan0 0CF00400#F0FFA2573700FFFF
(1700000012.080000) vcan0 0CF00400#F0FFA25F3700FFFF
(1700000012.100000) vcan0 0CF00400#F0FFA2683700FFFF
(1700000012.100000) vcan0 18FEF100#FFE63FFFFFFFFFFF
(1700000012.120000) vcan0 0CF00400#F0FFA2703700FFFF
(1700000012.140000) vcan0 0CF00400#F0FFA2793700FFFF
(1700000012.160000) vcan0 0CF00400#F0FFA2823700FFFF
(1700000012.180000) vcan0 0CF00400#F0FFA28B3700FFFF
(1700000012.200000) vcan0 0CF00400#F0FFA2943700FFFF
(1700000012.200000) vcan0 18FEF100#FFCC40FFFFFFFFFF
(1700000012.220000) vcan0 0CF00400#F0FFA29D3700FFFF
(1700000012.240000) vcan0 0CF00400#F0FFA2A63700FFFF
(1700000012.260000) vcan0 0CF00400#F0FFA2AF3700FFFF
(1700000012.280000) vcan0 0CF00400#F0FFA2B83700FFFF
(1700000012.300000) vcan0 0CF00400#F0FFA2C13700FFFF
(1700000012.300000) vcan0 18FEF100#FFB341FFFFFFFFFF
(1700000012.320000) vcan0 0CF00400#F0FFA2CA3700FFFF
(1700000012.340000) vcan0 0CF00400#F0FFA2D43700FFFF
(1700000012.360000) vcan0 0CF00400#F0FFA2DD3700FFFF
(1700000012.380000) vcan0 0CF00400#F0FFA2E73700FFFF
(1700000012.400000) vcan0 0CF00400#F0FFA2F03700FFFF
(1700000012.400000) vcan0 18FEF100#FF9942FFFFFFFFFF
(1700000012.420000) vcan0 0CF00400#F0FFA2F93700FFFF
(1700000012.440000) vcan0 0CF00400#F0FFA2033800FFFF
(1700000012.460000) vcan0 0CF00400#F0FFA20D3800FFFF
(1700000012.480000) vcan0 0CF00400#F0FFA2163800FFFF
(1700000012.500000) vcan0 0CF00400#F0FFA2203800FFFF
(1700000012.500000) vcan0 18FEF100#FF8043FFFFFFFFFF
(1700000012.500000) vcan0 18FECA00#00FF00000000FFFF
(1700000012.520000) vcan0 0CF00400#F0FFA2293800FFFF
(1700000012.540000) vcan0 0CF00400#F0FFA2333800FFFF
(1700000012.560000) vcan0 0CF00400#F0FFA23C3800FFFF
(1700000012.580000) vcan0 0CF00400#F0FFA3463800FFFF
(1700000012.600000) vcan0 0CF00400#F0FFA3503800FFFF
(1700000012.600000) vcan0 18FEF100#FF6644FFFFFFFFFF
(1700000012.620000) vcan0 0CF00400#F0FFA3593800FFFF
(1700000012.640000) vcan0 0CF00400#F0FFA3633800FFFF
(1700000012.660000) vcan0 0CF00400#F0FFA36C3800FFFF
(1700000012.680000) vcan0 0CF00400#F0FFA3763800FFFF
(1700000012.700000) vcan0 0CF00400#F0FFA37F3800FFFF
(1700000012.700000) vcan0 18FEF100#FF4C45FFFFFFFFFF
(1700000012.720000) vcan0 0CF00400#F0FFA3893800FFFF
(1700000012.740000) vcan0 0CF00400#F0FFA3923800FFFF
(1700000012.760000) vcan0 0CF00400#F0FFA39C3800FFFF
(1700000012.780000) vcan0 0CF00400#F0FFA3A53800FFFF
(1700000012.800000) vcan0 0CF00400#F0FFA3AF3800FFFF
(1700000012.800000) vcan0 18FEF100#FF3346FFFFFFFFFF
(1700000012.820000) vcan0 0CF00400#F0FFA3B83800FFFF
(1700000012.840000) vcan0 0CF00400#F0FFA3C13800FFFF
(1700000012.860000) vcan0 0CF00400#F0FFA3CA3800FFFF
(1700000012.880000) vcan0 0CF00400#F0FFA3D43800FFFF
(1700000012.900000) vcan0 0CF00400#F0FFA3DD3800FFFF
(1700000012.900000) vcan0 18FEF100#FF1947FFFFFFFFFF
(1700000012.920000) vcan0 0CF00400#F0FFA3E63800FFFF
(1700000012.940000) vcan0 0CF00400#F0FFA3EF3800FFFF
(1700000012.960000) vcan0 0CF00400#F0FFA3F83800FFFF
(1700000012.980000) vcan0 0CF00400#F0FFA3003900FFFF
(1700000013.000000) vcan0 0CF00400#F0FFA3093900FFFF
(1700000013.000000) vcan0 18FEF100#FF0048FFFFFFFFFF
(1700000013.000000) vcan0 18FEEE00#78FF602DFFFFFFFF
(1700000013.020000) vcan0 0CF00400#F0FFA3123900FFFF
(1700000013.040000) vcan0 0CF00400#F0FFA31A3900FFFF
(1700000013.060000) vcan0 0CF00400#F0FFA3233900FFFF
(1700000013.080000) vcan0 0CF00400#F0FFA32B3900FFFF
(1700000013.100000) vcan0 0CF00400#F0FFA3343900FFFF
(1700000013.100000) vcan0 18FEF100#FFE648FFFFFFFFFF
(1700000013.120000) vcan0 0CF00400#F0FFA33C3900FFFF
(1700000013.140000) vcan0 0CF00400#F0FFA3443900FFFF
(1700000013.160000) vcan0 0CF00400#F0FFA34C3900FFFF
(1700000013.180000) vcan0 0CF00400#F0FFA3543900FFFF
(1700000013.200000) vcan0 0CF00400#F0FFA35C3900FFFF
(1700000013.200000) vcan0 18FEF100#FFCC49FFFFFFFFFF
(1700000013.220000) vcan0 0CF00400#F0FFA3633900FFFF
(1700000013.240000) vcan0 0CF00400#F0FFA36B3900FFFF
(1700000013.260000) vcan0 0CF00400#F0FFA3723900FFFF
(1700000013.280000) vcan0 0CF00400#F0FFA37A3900FFFF
(1700000013.300000) vcan0 0CF00400#F0FFA3813900FFFF
(1700000013.300000) vcan0 18FEF100#FFB34AFFFFFFFFFF
(1700000013.320000) vcan0 0CF00400#F0FFA3883900FFFF
(1700000013.340000) vcan0 0CF00400#F0FFA38F3900FFFF
(1700000013.360000) vcan0 0CF00400#F0FFA3963900FFFF
(1700000013.380000) vcan0 0CF00400#F0FFA39C3900FFFF
(1700000013.400000) vcan0 0CF00400#F0FFA3A33900FFFF
(1700000013.400000) vcan0 18FEF100#FF994BFFFFFFFFFF
(1700000013.420000) vcan0 0CF00400#F0FFA3A93900FFFF
(1700000013.440000) vcan0 0CF00400#F0FFA3AF3900FFFF
(1700000013.460000) vcan0 0CF00400#F0FFA3B63900FFFF
(1700000013.480000) vcan0 0CF00400#F0FFA3BC3900FFFF
(1700000013.500000) vcan0 0CF00400#F0FFA3C13900FFFF
(1700000013.500000) vcan0 18FEF100#FF804CFFFFFFFFFF
(1700000013.500000) vcan0 18FECA00#00FF00000000FFFF
(1700000013.520000) vcan0 0CF00400#F0FFA3C73900FFFF
(1700000013.540000) vcan0 0CF00400#F0FFA3CC3900FFFF
(1700000013.560000) vcan0 0CF00400#F0FFA3D23900FFFF
(1700000013.580000) vcan0 0CF00400#F0FFA3D73900FFFF
(1700000013.600000) vcan0 0CF00400#F0FFA3DC3900FFFF
(1700000013.600000) vcan0 18FEF100#FF664DFFFFFFFFFF
(1700000013.620000) vcan0 0CF00400#F0FFA3E13900FFFF
(1700000013.640000) vcan0 0CF00400#F0FFA3E53900FFFF
(1700000013.660000) vcan0 0CF00400#F0FFA3EA3900FFFF
(1700000013.680000) vcan0 0CF00400#F0FFA3EE3900FFFF
(1700000013.700000) vcan0 0CF00400#F0FFA3F23900FFFF
(1700000013.700000) vcan0 18FEF100#FF4C4EFFFFFFFFFF
(1700000013.720000) vcan0 0CF00400#F0FFA3F63900FFFF
(1700000013.740000) vcan0 0CF00400#F0FFA3FA3900FFFF
(1700000013.760000) vcan0 0CF00400#F0FFA3FE3900FFFF
(1700000013.780000) vcan0 0CF00400#F0FFA3013A00FFFF
(1700000013.800000) vcan0 0CF00400#F0FFA3043A00FFFF
(1700000013.800000) vcan0 18FEF100#FF334FFFFFFFFFFF
(1700000013.820000) vcan0 0CF00400#F0FFA3083A00FFFF
(1700000013.840000) vcan0 0CF00400#F0FFA30A3A00FFFF
(1700000013.860000) vcan0 0CF00400#F0FFA30D3A00FFFF
(1700000013.880000) vcan0 0CF00400#F0FFA3103A00FFFF
(1700000013.900000) vcan0 0CF00400#F0FFA3123A00FFFF
(1700000013.900000) vcan0 18FEF100#FF1950FFFFFFFFFF
(1700000013.920000) vcan0 0CF00400#F0FFA3143A00FFFF
(1700000013.940000) vcan0 0CF00400#F0FFA3163A00FFFF
(1700000013.960000) vcan0 0CF00400#F0FFA3183A00FFFF
(1700000013.980000) vcan0 0CF00400#F0FFA31A3A00FFFF
(1700000014.000000) vcan0 0CF00400#F0FFA31B3A00FFFF
(1700000014.000000) vcan0 18FEF100#FF0051FFFFFFFFFF
(1700000014.000000) vcan0 18FEEE00#7AFFA02DFFFFFFFF
(1700000014.020000) vcan0 0CF00400#F0FFA31C3A00FFFF
(1700000014.040000) vcan0 0CF00400#F0FFA31D3A00FFFF
(1700000014.060000) vcan0 0CF00400#F0FFA31E3A00FFFF
(1700000014.080000) vcan0 0CF00400#F0FFA31F3A00FFFF
(1700000014.100000) vcan0 0CF00400#F0FFA31F3A00FFFF
(1700000014.100000) vcan0 18FEF100#FFE651FFFFFFFFFF
(1700000014.120000) vcan0 0CF00400#F0FFA31F3A00FFFF
(1700000014.140000) vcan0 0CF00400#F0FFA31F3A00FFFF
(1700000014.160000) vcan0 0CF00400#F0FFA31F3A00FFFF
(1700000014.180000) vcan0 0CF00400#F0FFA31F3A00FFFF
(1700000014.200000) vcan0 0CF00400#F0FFA31F3A00FFFF
(1700000014.200000) vcan0 18FEF100#FFCC52FFFFFFFFFF
(1700000014.220000) vcan0 0CF00400#F0FFA31E3A00FFFF
(1700000014.240000) vcan0 0CF00400#F0FFA31D3A00FFFF
(1700000014.260000) vcan0 0CF00400#F0FFA31C3A00FFFF
(1700000014.280000) vcan0 0CF00400#F0FFA31B3A00FFFF
(1700000014.300000) vcan0 0CF00400#F0FFA3193A00FFFF
(1700000014.300000) vcan0 18FEF100#FFB353FFFFFFFFFF
(1700000014.320000) vcan0 0CF00400#F0FFA3173A00FFFF
(1700000014.340000) vcan0 0CF00400#F0FFA3163A00FFFF
(1700000014.360000) vcan0 0CF00400#F0FFA3143A00FFFF
(1700000014.380000) vcan0 0CF00400#F0FFA3113A00FFFF
(1700000014.400000) vcan0 0CF00400#F0FFA30F3A00FFFF
(1700000014.400000) vcan0 18FEF100#FF9954FFFFFFFFFF
(1700000014.420000) vcan0 0CF00400#F0FFA30C3A00FFFF
(1700000014.440000) vcan0 0CF00400#F0FFA30A3A00FFFF
(1700000014.460000) vcan0 0CF00400#F0FFA3073A00FFFF
(1700000014.480000) vcan0 0CF00400#F0FFA3043A00FFFF
(1700000014.500000) vcan0 0CF00400#F0FFA3003A00FFFF
(1700000014.500000) vcan0 18FEF100#FF8055FFFFFFFFFF
(1700000014.500000) vcan0 18FECA00#00FF00000000FFFF
(1700000014.520000) vcan0 0CF00400#F0FFA3FD3900FFFF
(1700000014.540000) vcan0 0CF00400#F0FFA3F93900FFFF
(1700000014.560000) vcan0 0CF00400#F0FFA3F53900FFFF
(1700000014.580000) vcan0 0CF00400#F0FFA3F13900FFFF
(1700000014.600000) vcan0 0CF00400#F0FFA3ED3900FFFF
(1700000014.600000) vcan0 18FEF100#FF6656FFFFFFFFFF
(1700000014.620000) vcan0 0CF00400#F0FFA3E93900FFFF
(1700000014.640000) vcan0 0CF00400#F0FFA3E43900FFFF
(1700000014.660000) vcan0 0CF00400#F0FFA3DF3900FFFF
(1700000014.680000) vcan0 0CF00400#F0FFA3DA3900FFFF
(1700000014.700000) vcan0 0CF00400#F0FFA3D53900FFFF
(1700000014.700000) vcan0 18FEF100#FF4C57FFFFFFFFFF
(1700000014.720000) vcan0 0CF00400#F0FFA3D03900FFFF
(1700000014.740000) vcan0 0CF00400#F0FFA3CB3900FFFF
(1700000014.760000) vcan0 0CF00400#F0FFA3C53900FFFF
(1700000014.780000) vcan0 0CF00400#F0FFA3C03900FFFF
(1700000014.800000) vcan0 0CF00400#F0FFA3BA3900FFFF
(1700000014.800000) vcan0 18FEF100#FF3358FFFFFFFFFF
(1700000014.820000) vcan0 0CF00400#F0FFA3B43900FFFF
(1700000014.840000) vcan0 0CF00400#F0FFA3AE3900FFFF
(1700000014.860000) vcan0 0CF00400#F0FFA3A73900FFFF
(1700000014.880000) vcan0 0CF00400#F0FFA3A13900FFFF
(1700000014.900000) vcan0 0CF00400#F0FFA39A3900FFFF
(1700000014.900000) vcan0 18FEF100#FF1959FFFFFFFFFF
(1700000014.920000) vcan0 0CF00400#F0FFA3943900FFFF
(1700000014.940000) vcan0 0CF00400#F0FFA38D3900FFFF
(1700000014.960000) vcan0 0CF00400#F0FFA3863900FFFF
(1700000014.980000) vcan0 0CF00400#F0FFA37F3900FFFF
(1700000015.000000) vcan0 0CF00400#F0FFA3783900FFFF
(1700000015.000000) vcan0 18FEF100#FFE05BFFFFFFFFFF
(1700000015.000000) vcan0 18FEEE00#7CFFE02DFFFFFFFF
(1700000015.020000) vcan0 0CF00400#F0FFA3703900FFFF
(1700000015.040000) vcan0 0CF00400#F0FFA3693900FFFF
(1700000015.060000) vcan0 0CF00400#F0FFA3613900FFFF
(1700000015.080000) vcan0 0CF00400#F0FFA3593900FFFF
(1700000015.100000) vcan0 0CF00400#F0FFA3523900FFFF
(1700000015.100000) vcan0 18FEF100#FFE85BFFFFFFFFFF
(1700000015.120000) vcan0 0CF00400#F0FFA34A3900FFFF
(1700000015.140000) vcan0 0CF00400#F0FFA3423900FFFF
(1700000015.160000) vcan0 0CF00400#F0FFA33A3900FFFF
(1700000015.180000) vcan0 0CF00400#F0FFA3313900FFFF
(1700000015.200000) vcan0 0CF00400#F0FFA3293900FFFF
(1700000015.200000) vcan0 18FEF100#FFEF5BFFFFFFFFFF
(1700000015.220000) vcan0 0CF00400#F0FFA3213900FFFF
(1700000015.240000) vcan0 0CF00400#F0FFA3183900FFFF
(1700000015.260000) vcan0 0CF00400#F0FFA30F3900FFFF
(1700000015.280000) vcan0 0CF00400#F0FFA3073900FFFF
(1700000015.300000) vcan0 0CF00400#F0FFA3FE3800FFFF
(1700000015.300000) vcan0 18FEF100#FFF55BFFFFFFFFFF
(1700000015.320000) vcan0 0CF00400#F0FFA3F53800FFFF
(1700000015.340000) vcan0 0CF00400#F0FFA3EC3800FFFF
(1700000015.360000) vcan0 0CF00400#F0FFA3E33800FFFF
(1700000015.380000) vcan0 0CF00400#F0FFA3DA3800FFFF
(1700000015.400000) vcan0 0CF00400#F0FFA3D13800FFFF
(1700000015.400000) vcan0 18FEF100#FFF95BFFFFFFFFFF
(1700000015.420000) vcan0 0CF00400#F0FFA3C83800FFFF
(1700000015.440000) vcan0 0CF00400#F0FFA3BF3800FFFF
(1700000015.460000) vcan0 0CF00400#F0FFA3B53800FFFF
(1700000015.480000) vcan0 0CF00400#F0FFA3AC3800FFFF
(1700000015.500000) vcan0 0CF00400#F0FFA3A33800FFFF
(1700000015.500000) vcan0 18FEF100#FFFD5BFFFFFFFFFF
(1700000015.500000) vcan0 18FECA00#00FF00000000FFFF
(1700000015.520000) vcan0 0CF00400#F0FFA3993800FFFF
(1700000015.540000) vcan0 0CF00400#F0FFA3903800FFFF
(1700000015.560000) vcan0 0CF00400#F0FFA3863800FFFF
(1700000015.580000) vcan0 0CF00400#F0FFA37D3800FFFF
(1700000015.600000) vcan0 0CF00400#F0FFA3733800FFFF
(1700000015.600000) vcan0 18FEF100#FFFF5BFFFFFFFFFF
(1700000015.620000) vcan0 0CF00400#F0FFA36A3800FFFF
(1700000015.640000) vcan0 0CF00400#F0FFA3603800FFFF
(1700000015.660000) vcan0 0CF00400#F0FFA3573800FFFF
(1700000015.680000) vcan0 0CF00400#F0FFA34D3800FFFF
(1700000015.700000) vcan0 0CF00400#F0FFA3433800FFFF
(1700000015.700000) vcan0 18FEF100#FFFF5BFFFFFFFFFF
(1700000015.720000) vcan0 0CF00400#F0FFA23A3800FFFF
(1700000015.740000) vcan0 0CF00400#F0FFA2303800FFFF
(1700000015.760000) vcan0 0CF00400#F0FFA2273800FFFF
(1700000015.780000) vcan0 0CF00400#F0FFA21D3800FFFF
(1700000015.800000) vcan0 0CF00400#F0FFA2133800FFFF
(1700000015.800000) vcan0 18FEF100#FFFF5BFFFFFFFFFF
(1700000015.820000) vcan0 0CF00400#F0FFA20A3800FFFF
(1700000015.840000) vcan0 0CF00400#F0FFA2003800FFFF
(1700000015.860000) vcan0 0CF00400#F0FFA2F73700FFFF
(1700000015.880000) vcan0 0CF00400#F0FFA2ED3700FFFF
(1700000015.900000) vcan0 0CF00400#F0FFA2E43700FFFF
(1700000015.900000) vcan0 18FEF100#FFFD5BFFFFFFFFFF
(1700000015.920000) vcan0 0CF00400#F0FFA2DA3700FFFF
(1700000015.940000) vcan0 0CF00400#F0FFA2D13700FFFF
(1700000015.960000) vcan0 0CF00400#F0FFA2C83700FFFF
(1700000015.980000) vcan0 0CF00400#F0FFA2BF3700FFFF
(1700000016.000000) vcan0 0CF00400#F0FFA2B53700FFFF
(1700000016.000000) vcan0 18FEF100#FFFA5BFFFFFFFFFF
(1700000016.000000) vcan0 18FEEE00#7EFF202EFFFFFFFF
(1700000016.020000) vcan0 0CF00400#F0FFA2AC3700FFFF
(1700000016.040000) vcan0 0CF00400#F0FFA2A33700FFFF
(1700000016.060000) vcan0 0CF00400#F0FFA29A3700FFFF
(1700000016.080000) vcan0 0CF00400#F0FFA2913700FFFF
(1700000016.100000) vcan0 0CF00400#F0FFA2883700FFFF
(1700000016.100000) vcan0 18FEF100#FFF65BFFFFFFFFFF
(1700000016.120000) vcan0 0CF00400#F0FFA27F3700FFFF
(1700000016.140000) vcan0 0CF00400#F0FFA2773700FFFF
(1700000016.160000) vcan0 0CF00400#F0FFA26E3700FFFF
(1700000016.180000) vcan0 0CF00400#F0FFA2653700FFFF
(1700000016.200000) vcan0 0CF00400#F0FFA25D3700FFFF
(1700000016.200000) vcan0 18FEF100#FFF05BFFFFFFFFFF
(1700000016.220000) vcan0 0CF00400#F0FFA2543700FFFF
(1700000016.240000) vcan0 0CF00400#F0FFA24C3700FFFF
(1700000016.260000) vcan0 0CF00400#F0FFA2443700FFFF
(1700000016.280000) vcan0 0CF00400#F0FFA23C3700FFFF
(1700000016.300000) vcan0 0CF00400#F0FFA2343700FFFF
(1700000016.300000) vcan0 18FEF100#FFE95BFFFFFFFFFF
(1700000016.320000) vcan0 0CF00400#F0FFA22C3700FFFF
(1700000016.340000) vcan0 0CF00400#F0FFA2243700FFFF
(1700000016.360000) vcan0 0CF00400#F0FFA21C3700FFFF
(1700000016.380000) vcan0 0CF00400#F0FFA2153700FFFF
(1700000016.400000) vcan0 0CF00400#F0FFA20D3700FFFF
(1700000016.400000) vcan0 18FEF100#FFE15BFFFFFFFFFF
(1700000016.420000) vcan0 0CF00400#F0FFA2063700FFFF
(1700000016.440000) vcan0 0CF00400#F0FFA2FF3600FFFF
(1700000016.460000) vcan0 0CF00400#F0FFA2F83600FFFF
(1700000016.480000) vcan0 0CF00400#F0FFA2F13600FFFF
(1700000016.500000) vcan0 0CF00400#F0FFA2EA3600FFFF
(1700000016.500000) vcan0 18FEF100#FFD85BFFFFFFFFFF
(1700000016.500000) vcan0 18FECA00#00FF00000000FFFF
(1700000016.520000) vcan0 0CF00400#F0FFA2E33600FFFF
(1700000016.540000) vcan0 0CF00400#F0FFA2DD3600FFFF
(1700000016.560000) vcan0 0CF00400#F0FFA2D63600FFFF
(1700000016.580000) vcan0 0CF00400#F0FFA2D03600FFFF
(1700000016.600000) vcan0 0CF00400#F0FFA2CA3600FFFF
(1700000016.600000) vcan0 18FEF100#FFCD5BFFFFFFFFFF
(1700000016.620000) vcan0 0CF00400#F0FFA2C43600FFFF
(1700000016.640000) vcan0 0CF00400#F0FFA2BE3600FFFF
(1700000016.660000) vcan0 0CF00400#F0FFA2B83600FFFF
(1700000016.680000) vcan0 0CF00400#F0FFA2B33600FFFF
(1700000016.700000) vcan0 0CF00400#F0FFA2AE3600FFFF
(1700000016.700000) vcan0 18FEF100#FFC25BFFFFFFFFFF
(1700000016.720000) vcan0 0CF00400#F0FFA2A93600FFFF
(1700000016.740000) vcan0 0CF00400#F0FFA2A33600FFFF
(1700000016.760000) vcan0 0CF00400#F0FFA29F3600FFFF
(1700000016.780000) vcan0 0CF00400#F0FFA29A3600FFFF
(1700000016.800000) vcan0 0CF00400#F0FFA2953600FFFF
(1700000016.800000) vcan0 18FEF100#FFB55BFFFFFFFFFF
(1700000016.820000) vcan0 0CF00400#F0FFA2913600FFFF
(1700000016.840000) vcan0 0CF00400#F0FFA28D3600FFFF
(1700000016.860000) vcan0 0CF00400#F0FFA2893600FFFF
(1700000016.880000) vcan0 0CF00400#F0FFA2853600FFFF
(1700000016.900000) vcan0 0CF00400#F0FFA2823600FFFF
(1700000016.900000) vcan0 18FEF100#FFA75BFFFFFFFFFF
(1700000016.920000) vcan0 0CF00400#F0FFA27E3600FFFF
(1700000016.940000) vcan0 0CF00400#F0FFA27B3600FFFF
(1700000016.960000) vcan0 0CF00400#F0FFA2783600FFFF
(1700000016.980000) vcan0 0CF00400#F0FFA2753600FFFF
(1700000017.000000) vcan0 0CF00400#F0FFA2723600FFFF
(1700000017.000000) vcan0 18FEF100#FF985BFFFFFFFFFF
(1700000017.000000) vcan0 18FEEE00#80FF602EFFFFFFFF
(1700000017.020000) vcan0 0CF00400#F0FFA26F3600FFFF
(1700000017.040000) vcan0 0CF00400#F0FFA26D3600FFFF
(1700000017.060000) vcan0 0CF00400#F0FFA26B3600FFFF
(1700000017.080000) vcan0 0CF00400#F0FFA2693600FFFF
(1700000017.100000) vcan0 0CF00400#F0FFA2673600FFFF
(1700000017.100000) vcan0 18FEF100#FF885BFFFFFFFFFF
(1700000017.120000) vcan0 0CF00400#F0FFA2663600FFFF
(1700000017.140000) vcan0 0CF00400#F0FFA2643600FFFF
(1700000017.160000) vcan0 0CF00400#F0FFA2633600FFFF
(1700000017.180000) vcan0 0CF00400#F0FFA2623600FFFF
(1700000017.200000) vcan0 0CF00400#F0FFA2613600FFFF
(1700000017.200000) vcan0 18FEF100#FF785BFFFFFFFFFF
(1700000017.220000) vcan0 0CF00400#F0FFA2603600FFFF
(1700000017.240000) vcan0 0CF00400#F0FFA2603600FFFF
(1700000017.260000) vcan0 0CF00400#F0FFA2603600FFFF
(1700000017.280000) vcan0 0CF00400#F0FFA2603600FFFF
(1700000017.300000) vcan0 0CF00400#F0FFA2603600FFFF
(1700000017.300000) vcan0 18FEF100#FF665BFFFFFFFFFF
(1700000017.320000) vcan0 0CF00400#F0FFA2603600FFFF
(1700000017.340000) vcan0 0CF00400#F0FFA2603600FFFF
(1700000017.360000) vcan0 0CF00400#F0FFA2613600FFFF
(1700000017.380000) vcan0 0CF00400#F0FFA2623600FFFF
(1700000017.400000) vcan0 0CF00400#F0FFA2633600FFFF
(1700000017.400000) vcan0 18FEF100#FF535BFFFFFFFFFF
(1700000017.420000) vcan0 0CF00400#F0FFA2643600FFFF
(1700000017.440000) vcan0 0CF00400#F0FFA2663600FFFF
(1700000017.460000) vcan0 0CF00400#F0FFA2673600FFFF
(1700000017.480000) vcan0 0CF00400#F0FFA2693600FFFF
(1700000017.500000) vcan0 0CF00400#F0FFA26B3600FFFF
(1700000017.500000) vcan0 18FEF100#FF3F5BFFFFFFFFFF
(1700000017.500000) vcan0 18FECA00#00FF00000000FFFF
(1700000017.520000) vcan0 0CF00400#F0FFA26D3600FFFF
(1700000017.540000) vcan0 0CF00400#F0FFA2703600FFFF
(1700000017.560000) vcan0 0CF00400#F0FFA2723600FFFF
(1700000017.580000) vcan0 0CF00400#F0FFA2753600FFFF
(1700000017.600000) vcan0 0CF00400#F0FFA2783600FFFF
(1700000017.600000) vcan0 18FEF100#FF2B5BFFFFFFFFFF
(1700000017.620000) vcan0 0CF00400#F0FFA27B3600FFFF
(1700000017.640000) vcan0 0CF00400#F0FFA27E3600FFFF
(1700000017.660000) vcan0 0CF00400#F0FFA2823600FFFF
(1700000017.680000) vcan0 0CF00400#F0FFA2863600FFFF
(1700000017.700000) vcan0 0CF00400#F0FFA2893600FFFF
(1700000017.700000) vcan0 18FEF100#FF165BFFFFFFFFFF
(1700000017.720000) vcan0 0CF00400#F0FFA28D3600FFFF
(1700000017.740000) vcan0 0CF00400#F0FFA2923600FFFF
(1700000017.760000) vcan0 0CF00400#F0FFA2963600FFFF
(1700000017.780000) vcan0 0CF00400#F0FFA29B3600FFFF
(1700000017.800000) vcan0 0CF00400#F0FFA29F3600FFFF
(1700000017.800000) vcan0 18FEF100#FF005BFFFFFFFFFF
(1700000017.820000) vcan0 0CF00400#F0FFA2A43600FFFF
(1700000017.840000) vcan0 0CF00400#F0FFA2A93600FFFF
(1700000017.860000) vcan0 0CF00400#F0FFA2AE3600FFFF
(1700000017.880000) vcan0 0CF00400#F0FFA2B43600FFFF
(1700000017.900000) vcan0 0CF00400#F0FFA2B93600FFFF
(1700000017.900000) vcan0 18FEF100#FFEA5AFFFFFFFFFF
(1700000017.920000) vcan0 0CF00400#F0FFA2BF3600FFFF
(1700000017.940000) vcan0 0CF00400#F0FFA2C53600FFFF
(1700000017.960000) vcan0 0CF00400#F0FFA2CB3600FFFF
(1700000017.980000) vcan0 0CF00400#F0FFA2D13600FFFF
(1700000018.000000) vcan0 0CF00400#F0FFA2D73600FFFF
(1700000018.000000) vcan0 18FEF100#FFD35AFFFFFFFFFF
(1700000018.000000) vcan0 18FEEE00#82FFA02EFFFFFFFF
(1700000018.020000) vcan0 0CF00400#F0FFA2DD3600FFFF
(1700000018.040000) vcan0 0CF00400#F0FFA2E43600FFFF
(1700000018.060000) vcan0 0CF00400#F0FFA2EB3600FFFF
(1700000018.080000) vcan0 0CF00400#F0FFA2F23600FFFF
(1700000018.100000) vcan0 0CF00400#F0FFA2F83600FFFF
(1700000018.100000) vcan0 18FEF100#FFBB5AFFFFFFFFFF
(1700000018.120000) vcan0 0CF00400#F0FFA2003700FFFF
(1700000018.140000) vcan0 0CF00400#F0FFA2073700FFFF
(1700000018.160000) vcan0 0CF00400#F0FFA20E3700FFFF
(1700000018.180000) vcan0 0CF00400#F0FFA2163700FFFF
(1700000018.200000) vcan0 0CF00400#F0FFA21D3700FFFF
(1700000018.200000) vcan0 18FEF100#FFA35AFFFFFFFFFF
(1700000018.220000) vcan0 0CF00400#F0FFA2253700FFFF
(1700000018.240000) vcan0 0CF00400#F0FFA22D3700FFFF
(1700000018.260000) vcan0 0CF00400#F0FFA2353700FFFF
(1700000018.280000) vcan0 0CF00400#F0FFA23D3700FFFF
(1700000018.300000) vcan0 0CF00400#F0FFA2453700FFFF
(1700000018.300000) vcan0 18FEF100#FF8A5AFFFFFFFFFF
(1700000018.320000) vcan0 0CF00400#F0FFA24D3700FFFF
(1700000018.340000) vcan0 0CF00400#F0FFA2553700FFFF
(1700000018.360000) vcan0 0CF00400#F0FFA25E3700FFFF
(1700000018.380000) vcan0 0CF00400#F0FFA2663700FFFF
(1700000018.400000) vcan0 0CF00400#F0FFA26F3700FFFF
(1700000018.400000) vcan0 18FEF100#FF725AFFFFFFFFFF
(1700000018.420000) vcan0 0CF00400#F0FFA2783700FFFF
(1700000018.440000) vcan0 0CF00400#F0FFA2803700FFFF
(1700000018.460000) vcan0 0CF00400#F0FFA2893700FFFF
(1700000018.480000) vcan0 0CF00400#F0FFA2923700FFFF
(1700000018.500000) vcan0 0CF00400#F0FFA29B3700FFFF
(1700000018.500000) vcan0 18FEF100#FF595AFFFFFFFFFF
(1700000018.500000) vcan0 18FECA00#00FF00000000FFFF
(1700000018.520000) vcan0 0CF00400#F0FFA2A43700FFFF
(1700000018.540000) vcan0 0CF00400#F0FFA2AD3700FFFF
(1700000018.560000) vcan0 0CF00400#F0FFA2B63700FFFF
(1700000018.580000) vcan0 0CF00400#F0FFA2C03700FFFF
(1700000018.600000) vcan0 0CF00400#F0FFA2C93700FFFF
(1700000018.600000) vcan0 18FEF100#FF3F5AFFFFFFFFFF
(1700000018.620000) vcan0 0CF00400#F0FFA2D23700FFFF
(1700000018.640000) vcan0 0CF00400#F0FFA2DC3700FFFF
(1700000018.660000) vcan0 0CF00400#F0FFA2E53700FFFF
(1700000018.680000) vcan0 0CF00400#F0FFA2EF3700FFFF
(1700000018.700000) vcan0 0CF00400#F0FFA2F83700FFFF
(1700000018.700000) vcan0 18FEF100#FF265AFFFFFFFFFF
(1700000018.720000) vcan0 0CF00400#F0FFA2013800FFFF
(1700000018.740000) vcan0 0CF00400#F0FFA20B3800FFFF
(1700000018.760000) vcan0 0CF00400#F0FFA2153800FFFF
(1700000018.780000) vcan0 0CF00400#F0FFA21E3800FFFF
(1700000018.800000) vcan0 0CF00400#F0FFA2283800FFFF
(1700000018.800000) vcan0 18FEF100#FF0C5AFFFFFFFFFF
(1700000018.820000) vcan0 0CF00400#F0FFA2313800FFFF
(1700000018.840000) vcan0 0CF00400#F0FFA23B3800FFFF
(1700000018.860000) vcan0 0CF00400#F0FFA3453800FFFF
(1700000018.880000) vcan0 0CF00400#F0FFA34E3800FFFF
(1700000018.900000) vcan0 0CF00400#F0FFA3583800FFFF
(1700000018.900000) vcan0 18FEF100#FFF359FFFFFFFFFF
(1700000018.920000) vcan0 0CF00400#F0FFA3613800FFFF
(1700000018.940000) vcan0 0CF00400#F0FFA36B3800FFFF
(1700000018.960000) vcan0 0CF00400#F0FFA3743800FFFF
(1700000018.980000) vcan0 0CF00400#F0FFA37E3800FFFF
(1700000019.000000) vcan0 0CF00400#F0FFA3873800FFFF
(1700000019.000000) vcan0 18FEF100#FFD959FFFFFFFFFF
(1700000019.000000) vcan0 18FEEE00#84FFE02EFFFFFFFF
(1700000019.020000) vcan0 0CF00400#F0FFA3913800FFFF
(1700000019.040000) vcan0 0CF00400#F0FFA39A3800FFFF
(1700000019.060000) vcan0 0CF00400#F0FFA3A43800FFFF
(1700000019.080000) vcan0 0CF00400#F0FFA3AD3800FFFF
(1700000019.100000) vcan0 0CF00400#F0FFA3B63800FFFF
(1700000019.100000) vcan0 18FEF100#FFC059FFFFFFFFFF
(1700000019.120000) vcan0 0CF00400#F0FFA3C03800FFFF
(1700000019.140000) vcan0 0CF00400#F0FFA3C93800FFFF
(1700000019.160000) vcan0 0CF00400#F0FFA3D23800FFFF
(1700000019.180000) vcan0 0CF00400#F0FFA3DB3800FFFF
(1700000019.200000) vcan0 0CF00400#F0FFA3E43800FFFF
(1700000019.200000) vcan0 18FEF100#FFA659FFFFFFFFFF
(1700000019.220000) vcan0 0CF00400#F0FFA3ED3800FFFF
(1700000019.240000) vcan0 0CF00400#F0FFA3F63800FFFF
(1700000019.260000) vcan0 0CF00400#F0FFA3FF3800FFFF
(1700000019.280000) vcan0 0CF00400#F0FFA3083900FFFF
(1700000019.300000) vcan0 0CF00400#F0FFA3103900FFFF
(1700000019.300000) vcan0 18FEF100#FF8D59FFFFFFFFFF
(1700000019.320000) vcan0 0CF00400#F0FFA3193900FFFF
(1700000019.340000) vcan0 0CF00400#F0FFA3223900FFFF
(1700000019.360000) vcan0 0CF00400#F0FFA32A3900FFFF
(1700000019.380000) vcan0 0CF00400#F0FFA3323900FFFF
(1700000019.400000) vcan0 0CF00400#F0FFA33B3900FFFF
(1700000019.400000) vcan0 18FEF100#FF7459FFFFFFFFFF
(1700000019.420000) vcan0 0CF00400#F0FFA3433900FFFF
(1700000019.440000) vcan0 0CF00400#F0FFA34B3900FFFF
(1700000019.460000) vcan0 0CF00400#F0FFA3533900FFFF
(1700000019.480000) vcan0 0CF00400#F0FFA35A3900FFFF
(1700000019.500000) vcan0 0CF00400#F0FFA3623900FFFF
(1700000019.500000) vcan0 18FEF100#FF5C59FFFFFFFFFF
(1700000019.500000) vcan0 18FECA00#00FF00000000FFFF
(1700000019.520000) vcan0 0CF00400#F0FFA36A3900FFFF
(1700000019.540000) vcan0 0CF00400#F0FFA3713900FFFF
(1700000019.560000) vcan0 0CF00400#F0FFA3793900FFFF
(1700000019.580000) vcan0 0CF00400#F0FFA3803900FFFF
(1700000019.600000) vcan0 0CF00400#F0FFA3873900FFFF
(1700000019.600000) vcan0 18FEF100#FF4459FFFFFFFFFF
(1700000019.620000) vcan0 0CF00400#F0FFA38E3900FFFF
(1700000019.640000) vcan0 0CF00400#F0FFA3953900FFFF
(1700000019.660000) vcan0 0CF00400#F0FFA39B3900FFFF
(1700000019.680000) vcan0 0CF00400#F0FFA3A23900FFFF
(1700000019.700000) vcan0 0CF00400#F0FFA3A83900FFFF
(1700000019.700000) vcan0 18FEF100#FF2C59FFFFFFFFFF
(1700000019.720000) vcan0 0CF00400#F0FFA3AF3900FFFF
(1700000019.740000) vcan0 0CF00400#F0FFA3B53900FFFF
(1700000019.760000) vcan0 0CF00400#F0FFA3BB3900FFFF
(1700000019.780000) vcan0 0CF00400#F0FFA3C03900FFFF
(1700000019.800000) vcan0 0CF00400#F0FFA3C63900FFFF
(1700000019.800000) vcan0 18FEF100#FF1559FFFFFFFFFF
(1700000019.820000) vcan0 0CF00400#F0FFA3CC3900FFFF
(1700000019.840000) vcan0 0CF00400#F0FFA3D13900FFFF
(1700000019.860000) vcan0 0CF00400#F0FFA3D63900FFFF
(1700000019.880000) vcan0 0CF00400#F0FFA3DB3900FFFF
(1700000019.900000) vcan0 0CF00400#F0FFA3E03900FFFF
(1700000019.900000) vcan0 18FEF100#FFFF58FFFFFFFFFF
(1700000019.920000) vcan0 0CF00400#F0FFA3E53900FFFF
(1700000019.940000) vcan0 0CF00400#F0FFA3E93900FFFF
(1700000019.960000) vcan0 0CF00400#F0FFA3EE3900FFFF
(1700000019.980000) vcan0 0CF00400#F0FFA3F23900FFFF
(1700000020.000000) vcan0 0CF00400#F0FFA3F63900FFFF
(1700000020.000000) vcan0 18FEF100#FFE958FFFFFFFFFF
(1700000020.000000) vcan0 18FEEE00#86FF202FFFFFFFFF
(1700000020.020000) vcan0 0CF00400#F0FFA3FA3900FFFF
(1700000020.040000) vcan0 0CF00400#F0FFA3FD3900FFFF
(1700000020.060000) vcan0 0CF00400#F0FFA3013A00FFFF
(1700000020.080000) vcan0 0CF00400#F0FFA3043A00FFFF
(1700000020.100000) vcan0 0CF00400#F0FFA3073A00FFFF
(1700000020.100000) vcan0 18FEF100#FFD458FFFFFFFFFF
(1700000020.120000) vcan0 0CF00400#F0FFA30A3A00FFFF
(1700000020.140000) vcan0 0CF00400#F0FFA30D3A00FFFF
(1700000020.160000) vcan0 0CF00400#F0FFA30F3A00FFFF
(1700000020.180000) vcan0 0CF00400#F0FFA3123A00FFFF
(1700000020.200000) vcan0 0CF00400#F0FFA3143A00FFFF
(1700000020.200000) vcan0 18FEF100#FFBF58FFFFFFFFFF
(1700000020.220000) vcan0 0CF00400#F0FFA3163A00FFFF
(1700000020.240000) vcan0 0CF00400#F0FFA3183A00FFFF
(1700000020.260000) vcan0 0CF00400#F0FFA3193A00FFFF
(1700000020.280000) vcan0 0CF00400#F0FFA31B3A00FFFF
(1700000020.300000) vcan0 0CF00400#F0FFA31C3A00FFFF
(1700000020.300000) vcan0 18FEF100#FFAC58FFFFFFFFFF
(1700000020.320000) vcan0 0CF00400#F0FFA31D3A00FFFF
(1700000020.340000) vcan0 0CF00400#F0FFA31E3A00FFFF
(1700000020.360000) vcan0 0CF00400#F0FFA31F3A00FFFF
(1700000020.380000) vcan0 0CF00400#F0FFA31F3A00FFFF
(1700000020.400000) vcan0 0CF00400#F0FFA31F3A00FFFF
(1700000020.400000) vcan0 18FEF100#FF9958FFFFFFFFFF
(1700000020.420000) vcan0 0CF00400#F0FFA31F3A00FFFF
(1700000020.440000) vcan0 0CF00400#F0FFA31F3A00FFFF
(1700000020.460000) vcan0 0CF00400#F0FFA31F3A00FFFF
(1700000020.480000) vcan0 0CF00400#F0FFA31F3A00FFFF
(1700000020.500000) vcan0 0CF00400#F0FFA31E3A00FFFF
(1700000020.500000) vcan0 18FEF100#FF8758FFFFFFFFFF
(1700000020.500000) vcan0 18FECA00#00FF00000000FFFF
(1700000020.520000) vcan0 0CF00400#F0FFA31D3A00FFFF
(1700000020.540000) vcan0 0CF00400#F0FFA31C3A00FFFF
(1700000020.560000) vcan0 0CF00400#F0FFA31B3A00FFFF
(1700000020.580000) vcan0 0CF00400#F0FFA3193A00FFFF
(1700000020.600000) vcan0 0CF00400#F0FFA3183A00FFFF
(1700000020.600000) vcan0 18FEF100#FF7658FFFFFFFFFF
(1700000020.620000) vcan0 0CF00400#F0FFA3163A00FFFF
(1700000020.640000) vcan0 0CF00400#F0FFA3143A00FFFF
(1700000020.660000) vcan0 0CF00400#F0FFA3123A00FFFF
(1700000020.680000) vcan0 0CF00400#F0FFA30F3A00FFFF
(1700000020.700000) vcan0 0CF00400#F0FFA30D3A00FFFF
(1700000020.700000) vcan0 18FEF100#FF6758FFFFFFFFFF
(1700000020.720000) vcan0 0CF00400#F0FFA30A3A00FFFF
(1700000020.740000) vcan0 0CF00400#F0FFA3073A00FFFF
(1700000020.760000) vcan0 0CF00400#F0FFA3043A00FFFF
(1700000020.780000) vcan0 0CF00400#F0FFA3013A00FFFF
(1700000020.800000) vcan0 0CF00400#F0FFA3FD3900FFFF
(1700000020.800000) vcan0 18FEF100#FF5858FFFFFFFFFF
(1700000020.820000) vcan0 0CF00400#F0FFA3FA3900FFFF
(1700000020.840000) vcan0 0CF00400#F0FFA3F63900FFFF
(1700000020.860000) vcan0 0CF00400#F0FFA3F23900FFFF
(1700000020.880000) vcan0 0CF00400#F0FFA3EE3900FFFF
(1700000020.900000) vcan0 0CF00400#F0FFA3E93900FFFF
(1700000020.900000) vcan0 18FEF100#FF4A58FFFFFFFFFF
(1700000020.920000) vcan0 0CF00400#F0FFA3E53900FFFF
(1700000020.940000) vcan0 0CF00400#F0FFA3E03900FFFF
(1700000020.960000) vcan0 0CF00400#F0FFA3DB3900FFFF
(1700000020.980000) vcan0 0CF00400#F0FFA3D63900FFFF
(1700000021.000000) vcan0 0CF00400#F0FFA3D13900FFFF
(1700000021.000000) vcan0 18FEF100#FF3D58FFFFFFFFFF
(1700000021.000000) vcan0 18FEEE00#88FF602FFFFFFFFF
(1700000021.020000) vcan0 0CF00400#F0FFA3CC3900FFFF
(1700000021.040000) vcan0 0CF00400#F0FFA3C63900FFFF
(1700000021.060000) vcan0 0CF00400#F0FFA3C13900FFFF
(1700000021.080000) vcan0 0CF00400#F0FFA3BB3900FFFF
(1700000021.100000) vcan0 0CF00400#F0FFA3B53900FFFF
(1700000021.100000) vcan0 18FEF100#FF3158FFFFFFFFFF
(1700000021.120000) vcan0 0CF00400#F0FFA3AF3900FFFF
(1700000021.140000) vcan0 0CF00400#F0FFA3A83900FFFF
(1700000021.160000) vcan0 0CF00400#F0FFA3A23900FFFF
(1700000021.180000) vcan0 0CF00400#F0FFA39C3900FFFF
(1700000021.200000) vcan0 0CF00400#F0FFA3953900FFFF
(1700000021.200000) vcan0 18FEF100#FF2758FFFFFFFFFF
(1700000021.220000) vcan0 0CF00400#F0FFA38E3900FFFF
(1700000021.240000) vcan0 0CF00400#F0FFA3873900FFFF
(1700000021.260000) vcan0 0CF00400#F0FFA3803900FFFF
(1700000021.280000) vcan0 0CF00400#F0FFA3793900FFFF
(1700000021.300000) vcan0 0CF00400#F0FFA3713900FFFF
(1700000021.300000) vcan0 18FEF100#FF1E58FFFFFFFFFF
(1700000021.320000) vcan0 0CF00400#F0FFA36A3900FFFF
(1700000021.340000) vcan0 0CF00400#F0FFA3623900FFFF
(1700000021.360000) vcan0 0CF00400#F0FFA35B3900FFFF
(1700000021.380000) vcan0 0CF00400#F0FFA3533900FFFF
(1700000021.400000) vcan0 0CF00400#F0FFA34B3900FFFF
(1700000021.400000) vcan0 18FEF100#FF1658FFFFFFFFFF
(1700000021.420000) vcan0 0CF00400#F0FFA3433900FFFF
(1700000021.440000) vcan0 0CF00400#F0FFA33B3900FFFF
(1700000021.460000) vcan0 0CF00400#F0FFA3333900FFFF
(1700000021.480000) vcan0 0CF00400#F0FFA32A3900FFFF
(1700000021.500000) vcan0 0CF00400#F0FFA3223900FFFF
(1700000021.500000) vcan0 18FEF100#FF0F58FFFFFFFFFF
(1700000021.500000) vcan0 18FECA00#00FF00000000FFFF
(1700000021.520000) vcan0 0CF00400#F0FFA3193900FFFF
(1700000021.540000) vcan0 0CF00400#F0FFA3113900FFFF
(1700000021.560000) vcan0 0CF00400#F0FFA3083900FFFF
(1700000021.580000) vcan0 0CF00400#F0FFA3FF3800FFFF
(1700000021.600000) vcan0 0CF00400#F0FFA3F73800FFFF
(1700000021.600000) vcan0 18FEF100#FF0958FFFFFFFFFF
(1700000021.620000) vcan0 0CF00400#F0FFA3EE3800FFFF
(1700000021.640000) vcan0 0CF00400#F0FFA3E53800FFFF
(1700000021.660000) vcan0 0CF00400#F0FFA3DC3800FFFF
(1700000021.680000) vcan0 0CF00400#F0FFA3D23800FFFF
(1700000021.700000) vcan0 0CF00400#F0FFA3C93800FFFF
(1700000021.700000) vcan0 18FEF100#FF0558FFFFFFFFFF
(1700000021.720000) vcan0 0CF00400#F0FFA3C03800FFFF
(1700000021.740000) vcan0 0CF00400#F0FFA3B73800FFFF
(1700000021.760000) vcan0 0CF00400#F0FFA3AD3800FFFF
(1700000021.780000) vcan0 0CF00400#F0FFA3A43800FFFF
(1700000021.800000) vcan0 0CF00400#F0FFA39B3800FFFF
(1700000021.800000) vcan0 18FEF100#FF0258FFFFFFFFFF
(1700000021.820000) vcan0 0CF00400#F0FFA3913800FFFF
(1700000021.840000) vcan0 0CF00400#F0FFA3883800FFFF
(1700000021.860000) vcan0 0CF00400#F0FFA37E3800FFFF
(1700000021.880000) vcan0 0CF00400#F0FFA3753800FFFF
(1700000021.900000) vcan0 0CF00400#F0FFA36B3800FFFF
(1700000021.900000) vcan0 18FEF100#FF0058FFFFFFFFFF
(1700000021.920000) vcan0 0CF00400#F0FFA3623800FFFF
(1700000021.940000) vcan0 0CF00400#F0FFA3583800FFFF
(1700000021.960000) vcan0 0CF00400#F0FFA34E3800FFFF
(1700000021.980000) vcan0 0CF00400#F0FFA3453800FFFF
(1700000022.000000) vcan0 0CF00400#F0FFA23B3800FFFF
(1700000022.000000) vcan0 18FEF100#FF0058FFFFFFFFFF
(1700000022.000000) vcan0 18FEEE00#8AFFA02FFFFFFFFF
(1700000022.020000) vcan0 0CF00400#F0FFA2323800FFFF
(1700000022.040000) vcan0 0CF00400#F0FFA2283800FFFF
(1700000022.060000) vcan0 0CF00400#F0FFA21E3800FFFF
(1700000022.080000) vcan0 0CF00400#F0FFA2153800FFFF
(1700000022.100000) vcan0 0CF00400#F0FFA20B3800FFFF
(1700000022.100000) vcan0 18FEF100#FF0058FFFFFFFFFF
(1700000022.120000) vcan0 0CF00400#F0FFA2023800FFFF
(1700000022.140000) vcan0 0CF00400#F0FFA2F83700FFFF
(1700000022.160000) vcan0 0CF00400#F0FFA2EF3700FFFF
(1700000022.180000) vcan0 0CF00400#F0FFA2E53700FFFF
(1700000022.200000) vcan0 0CF00400#F0FFA2DC3700FFFF
(1700000022.200000) vcan0 18FEF100#FF0258FFFFFFFFFF
(1700000022.220000) vcan0 0CF00400#F0FFA2D33700FFFF
(1700000022.240000) vcan0 0CF00400#F0FFA2C93700FFFF
(1700000022.260000) vcan0 0CF00400#F0FFA2C03700FFFF
(1700000022.280000) vcan0 0CF00400#F0FFA2B73700FFFF
(1700000022.300000) vcan0 0CF00400#F0FFA2AE3700FFFF
(1700000022.300000) vcan0 18FEF100#FF0658FFFFFFFFFF
(1700000022.320000) vcan0 0CF00400#F0FFA2A43700FFFF
(1700000022.340000) vcan0 0CF00400#F0FFA29B3700FFFF
(1700000022.360000) vcan0 0CF00400#F0FFA2923700FFFF
(1700000022.380000) vcan0 0CF00400#F0FFA28A3700FFFF
(1700000022.400000) vcan0 0CF00400#F0FFA2813700FFFF
(1700000022.400000) vcan0 18FEF100#FF0A58FFFFFFFFFF
(1700000022.420000) vcan0 0CF00400#F0FFA2783700FFFF
(1700000022.440000) vcan0 0CF00400#F0FFA26F3700FFFF
(1700000022.460000) vcan0 0CF00400#F0FFA2673700FFFF
(1700000022.480000) vcan0 0CF00400#F0FFA25E3700FFFF
(1700000022.500000) vcan0 0CF00400#F0FFA2563700FFFF
(1700000022.500000) vcan0 18FEF100#FF1058FFFFFFFFFF
(1700000022.500000) vcan0 18FECA00#00FF00000000FFFF
(1700000022.520000) vcan0 0CF00400#F0FFA24D3700FFFF
(1700000022.540000) vcan0 0CF00400#F0FFA2453700FFFF
(1700000022.560000) vcan0 0CF00400#F0FFA23D3700FFFF
(1700000022.580000) vcan0 0CF00400#F0FFA2353700FFFF
(1700000022.600000) vcan0 0CF00400#F0FFA22D3700FFFF
(1700000022.600000) vcan0 18FEF100#FF1758FFFFFFFFFF
(1700000022.620000) vcan0 0CF00400#F0FFA2253700FFFF
(1700000022.640000) vcan0 0CF00400#F0FFA21D3700FFFF
(1700000022.660000) vcan0 0CF00400#F0FFA2163700FFFF
(1700000022.680000) vcan0 0CF00400#F0FFA20E3700FFFF
(1700000022.700000) vcan0 0CF00400#F0FFA2073700FFFF
(1700000022.700000) vcan0 18FEF100#FF1F58FFFFFFFFFF
(1700000022.720000) vcan0 0CF00400#F0FFA2003700FFFF
(1700000022.740000) vcan0 0CF00400#F0FFA2F93600FFFF
(1700000022.760000) vcan0 0CF00400#F0FFA2F23600FFFF
(1700000022.780000) vcan0 0CF00400#F0FFA2EB3600FFFF
(1700000022.800000) vcan0 0CF00400#F0FFA2E43600FFFF
(1700000022.800000) vcan0 18FEF100#FF2958FFFFFFFFFF
(1700000022.820000) vcan0 0CF00400#F0FFA2DE3600FFFF
(1700000022.840000) vcan0 0CF00400#F0FFA2D73600FFFF
(1700000022.860000) vcan0 0CF00400#F0FFA2D13600FFFF
(1700000022.880000) vcan0 0CF00400#F0FFA2CB3600FFFF
(1700000022.900000) vcan0 0CF00400#F0FFA2C53600FFFF
(1700000022.900000) vcan0 18FEF100#FF3358FFFFFFFFFF
(1700000022.920000) vcan0 0CF00400#F0FFA2BF3600FFFF
(1700000022.940000) vcan0 0CF00400#F0FFA2B93600FFFF
(1700000022.960000) vcan0 0CF00400#F0FFA2B43600FFFF
(1700000022.980000) vcan0 0CF00400#F0FFA2AF3600FFFF
(1700000023.000000) vcan0 0CF00400#F0FFA2A93600FFFF
(1700000023.000000) vcan0 18FEF100#FF3F58FFFFFFFFFF
(1700000023.000000) vcan0 18FEEE00#8CFFE02FFFFFFFFF
(1700000023.020000) vcan0 0CF00400#F0FFA2A43600FFFF
(1700000023.040000) vcan0 0CF00400#F0FFA29F3600FFFF
(1700000023.060000) vcan0 0CF00400#F0FFA29B3600FFFF
(1700000023.080000) vcan0 0CF00400#F0FFA2963600FFFF
(1700000023.100000) vcan0 0CF00400#F0FFA2923600FFFF
(1700000023.100000) vcan0 18FEF100#FF4C58FFFFFFFFFF
(1700000023.120000) vcan0 0CF00400#F0FFA28E3600FFFF
(1700000023.140000) vcan0 0CF00400#F0FFA28A3600FFFF
(1700000023.160000) vcan0 0CF00400#F0FFA2863600FFFF
(1700000023.180000) vcan0 0CF00400#F0FFA2823600FFFF
(1700000023.200000) vcan0 0CF00400#F0FFA27F3600FFFF
(1700000023.200000) vcan0 18FEF100#FF5A58FFFFFFFFFF
(1700000023.220000) vcan0 0CF00400#F0FFA27B3600FFFF
(1700000023.240000) vcan0 0CF00400#F0FFA2783600FFFF
(1700000023.260000) vcan0 0CF00400#F0FFA2753600FFFF
(1700000023.280000) vcan0 0CF00400#F0FFA2723600FFFF
(1700000023.300000) vcan0 0CF00400#F0FFA2703600FFFF
(1700000023.300000) vcan0 18FEF100#FF6958FFFFFFFFFF
(1700000023.320000) vcan0 0CF00400#F0FFA26D3600FFFF
(1700000023.340000) vcan0 0CF00400#F0FFA26B3600FFFF
(1700000023.360000) vcan0 0CF00400#F0FFA2693600FFFF
(1700000023.380000) vcan0 0CF00400#F0FFA2673600FFFF
(1700000023.400000) vcan0 0CF00400#F0FFA2663600FFFF
(1700000023.400000) vcan0 18FEF100#FF7958FFFFFFFFFF
(1700000023.420000) vcan0 0CF00400#F0FFA2643600FFFF
(1700000023.440000) vcan0 0CF00400#F0FFA2633600FFFF
(1700000023.460000) vcan0 0CF00400#F0FFA2623600FFFF
(1700000023.480000) vcan0 0CF00400#F0FFA2613600FFFF
(1700000023.500000) vcan0 0CF00400#F0FFA2603600FFFF
(1700000023.500000) vcan0 18FEF100#FF8A58FFFFFFFFFF
(1700000023.500000) vcan0 18FECA00#00FF00000000FFFF
(1700000023.520000) vcan0 0CF00400#F0FFA2603600FFFF
(1700000023.540000) vcan0 0CF00400#F0FFA2603600FFFF
(1700000023.560000) vcan0 0CF00400#F0FFA2603600FFFF
(1700000023.580000) vcan0 0CF00400#F0FFA2603600FFFF
(1700000023.600000) vcan0 0CF00400#F0FFA2603600FFFF
(1700000023.600000) vcan0 18FEF100#FF9C58FFFFFFFFFF
(1700000023.620000) vcan0 0CF00400#F0FFA2603600FFFF
(1700000023.640000) vcan0 0CF00400#F0FFA2613600FFFF
(1700000023.660000) vcan0 0CF00400#F0FFA2623600FFFF
(1700000023.680000) vcan0 0CF00400#F0FFA2633600FFFF
(1700000023.700000) vcan0 0CF00400#F0FFA2643600FFFF
(1700000023.700000) vcan0 18FEF100#FFAF58FFFFFFFFFF
(1700000023.720000) vcan0 0CF00400#F0FFA2653600FFFF
(1700000023.740000) vcan0 0CF00400#F0FFA2673600FFFF
(1700000023.760000) vcan0 0CF00400#F0FFA2693600FFFF
(1700000023.780000) vcan0 0CF00400#F0FFA26B3600FFFF
(1700000023.800000) vcan0 0CF00400#F0FFA26D3600FFFF
(1700000023.800000) vcan0 18FEF100#FFC358FFFFFFFFFF
(1700000023.820000) vcan0 0CF00400#F0FFA26F3600FFFF
(1700000023.840000) vcan0 0CF00400#F0FFA2723600FFFF
(1700000023.860000) vcan0 0CF00400#F0FFA2753600FFFF
(1700000023.880000) vcan0 0CF00400#F0FFA2783600FFFF
(1700000023.900000) vcan0 0CF00400#F0FFA27B3600FFFF
(1700000023.900000) vcan0 18FEF100#FFD858FFFFFFFFFF
(1700000023.920000) vcan0 0CF00400#F0FFA27E3600FFFF
(1700000023.940000) vcan0 0CF00400#F0FFA2813600FFFF
(1700000023.960000) vcan0 0CF00400#F0FFA2853600FFFF
(1700000023.980000) vcan0 0CF00400#F0FFA2893600FFFF
(1700000024.000000) vcan0 0CF00400#F0FFA28D3600FFFF
(1700000024.000000) vcan0 18FEF100#FFED58FFFFFFFFFF
(1700000024.000000) vcan0 18FEEE00#8EFF2030FFFFFFFF
(1700000024.020000) vcan0 0CF00400#F0FFA2913600FFFF
(1700000024.040000) vcan0 0CF00400#F0FFA2953600FFFF
(1700000024.060000) vcan0 0CF00400#F0FFA29A3600FFFF
(1700000024.080000) vcan0 0CF00400#F0FFA29E3600FFFF
(1700000024.100000) vcan0 0CF00400#F0FFA2A33600FFFF
(1700000024.100000) vcan0 18FEF100#FF0359FFFFFFFFFF
(1700000024.120000) vcan0 0CF00400#F0FFA2A83600FFFF
(1700000024.140000) vcan0 0CF00400#F0FFA2AD3600FFFF
(1700000024.160000) vcan0 0CF00400#F0FFA2B33600FFFF
(1700000024.180000) vcan0 0CF00400#F0FFA2B83600FFFF
(1700000024.200000) vcan0 0CF00400#F0FFA2BE3600FFFF
(1700000024.200000) vcan0 18FEF100#FF1959FFFFFFFFFF
(1700000024.220000) vcan0 0CF00400#F0FFA2C43600FFFF
(1700000024.240000) vcan0 0CF00400#F0FFA2CA3600FFFF
(1700000024.260000) vcan0 0CF00400#F0FFA2D03600FFFF
(1700000024.280000) vcan0 0CF00400#F0FFA2D63600FFFF
(1700000024.300000) vcan0 0CF00400#F0FFA2DC3600FFFF
(1700000024.300000) vcan0 18FEF100#FF3059FFFFFFFFFF
(1700000024.320000) vcan0 0CF00400#F0FFA2E33600FFFF
(1700000024.340000) vcan0 0CF00400#F0FFA2EA3600FFFF
(1700000024.360000) vcan0 0CF00400#F0FFA2F03600FFFF
(1700000024.380000) vcan0 0CF00400#F0FFA2F73600FFFF
(1700000024.400000) vcan0 0CF00400#F0FFA2FE3600FFFF
(1700000024.400000) vcan0 18FEF100#FF4859FFFFFFFFFF
(1700000024.420000) vcan0 0CF00400#F0FFA2063700FFFF
(1700000024.440000) vcan0 0CF00400#F0FFA20D3700FFFF
(1700000024.460000) vcan0 0CF00400#F0FFA2143700FFFF
(1700000024.480000) vcan0 0CF00400#F0FFA21C3700FFFF
(1700000024.500000) vcan0 0CF00400#F0FFA2243700FFFF
(1700000024.500000) vcan0 18FEF100#FF6059FFFFFFFFFF
(1700000024.500000) vcan0 18FECA00#00FF00000000FFFF
(1700000024.520000) vcan0 0CF00400#F0FFA22B3700FFFF
(1700000024.540000) vcan0 0CF00400#F0FFA2333700FFFF
(1700000024.560000) vcan0 0CF00400#F0FFA23B3700FFFF
(1700000024.580000) vcan0 0CF00400#F0FFA2433700FFFF
(1700000024.600000) vcan0 0CF00400#F0FFA24C3700FFFF
(1700000024.600000) vcan0 18FEF100#FF7959FFFFFFFFFF
(1700000024.620000) vcan0 0CF00400#F0FFA2543700FFFF
(1700000024.640000) vcan0 0CF00400#F0FFA25C3700FFFF
(1700000024.660000) vcan0 0CF00400#F0FFA2653700FFFF
(1700000024.680000) vcan0 0CF00400#F0FFA26E3700FFFF
(1700000024.700000) vcan0 0CF00400#F0FFA2763700FFFF
(1700000024.700000) vcan0 18FEF100#FF9259FFFFFFFFFF
(1700000024.720000) vcan0 0CF00400#F0FFA27F3700FFFF
(1700000024.740000) vcan0 0CF00400#F0FFA2883700FFFF
(1700000024.760000) vcan0 0CF00400#F0FFA2913700FFFF
(1700000024.780000) vcan0 0CF00400#F0FFA29A3700FFFF
(1700000024.800000) vcan0 0CF00400#F0FFA2A33700FFFF
(1700000024.800000) vcan0 18FEF100#FFAB59FFFFFFFFFF
(1700000024.820000) vcan0 0CF00400#F0FFA2AC3700FFFF
(1700000024.840000) vcan0 0CF00400#F0FFA2B53700FFFF
(1700000024.860000) vcan0 0CF00400#F0FFA2BE3700FFFF
(1700000024.880000) vcan0 0CF00400#F0FFA2C73700FFFF
(1700000024.900000) vcan0 0CF00400#F0FFA2D13700FFFF
(1700000024.900000) vcan0 18FEF100#FFC459FFFFFFFFFF
(1700000024.920000) vcan0 0CF00400#F0FFA2DA3700FFFF
(1700000024.940000) vcan0 0CF00400#F0FFA2E43700FFFF
(1700000024.960000) vcan0 0CF00400#F0FFA2ED3700FFFF
(1700000024.980000) vcan0 0CF00400#F0FFA2F63700FFFF
(1700000025.000000) vcan0 0CF00400#F0FFA2003800FFFF
(1700000025.000000) vcan0 18FEF100#FFDE59FFFFFFFFFF
(1700000025.000000) vcan0 18FEEE00#90FF6030FFFFFFFF
(1700000025.020000) vcan0 0CF00400#F0FFA2093800FFFF
(1700000025.040000) vcan0 0CF00400#F0FFA2133800FFFF
(1700000025.060000) vcan0 0CF00400#F0FFA21D3800FFFF
(1700000025.080000) vcan0 0CF00400#F0FFA2263800FFFF
(1700000025.100000) vcan0 0CF00400#F0FFA2303800FFFF
(1700000025.100000) vcan0 18FEF100#FFF759FFFFFFFFFF
(1700000025.120000) vcan0 0CF00400#F0FFA2393800FFFF
(1700000025.140000) vcan0 0CF00400#F0FFA3433800FFFF
(1700000025.160000) vcan0 0CF00400#F0FFA34D3800FFFF
(1700000025.180000) vcan0 0CF00400#F0FFA3563800FFFF
(1700000025.200000) vcan0 0CF00400#F0FFA3603800FFFF
(1700000025.200000) vcan0 18FEF100#FF115AFFFFFFFFFF
(1700000025.220000) vcan0 0CF00400#F0FFA3693800FFFF
(1700000025.240000) vcan0 0CF00400#F0FFA3733800FFFF
(1700000025.260000) vcan0 0CF00400#F0FFA37C3800FFFF
(1700000025.280000) vcan0 0CF00400#F0FFA3863800FFFF
(1700000025.300000) vcan0 0CF00400#F0FFA38F3800FFFF
(1700000025.300000) vcan0 18FEF100#FF2A5AFFFFFFFFFF
(1700000025.320000) vcan0 0CF00400#F0FFA3993800FFFF
(1700000025.340000) vcan0 0CF00400#F0FFA3A23800FFFF
(1700000025.360000) vcan0 0CF00400#F0FFA3AC3800FFFF
(1700000025.380000) vcan0 0CF00400#F0FFA3B53800FFFF
(1700000025.400000) vcan0 0CF00400#F0FFA3BE3800FFFF
(1700000025.400000) vcan0 18FEF100#FF445AFFFFFFFFFF
(1700000025.420000) vcan0 0CF00400#F0FFA3C73800FFFF
(1700000025.440000) vcan0 0CF00400#F0FFA3D13800FFFF
(1700000025.460000) vcan0 0CF00400#F0FFA3DA3800FFFF
(1700000025.480000) vcan0 0CF00400#F0FFA3E33800FFFF
(1700000025.500000) vcan0 0CF00400#F0FFA3EC3800FFFF
(1700000025.500000) vcan0 18FEF100#FF5D5AFFFFFFFFFF
(1700000025.500000) vcan0 18FECA00#00FF00000000FFFF
(1700000025.520000) vcan0 0CF00400#F0FFA3F53800FFFF
(1700000025.540000) vcan0 0CF00400#F0FFA3FE3800FFFF
(1700000025.560000) vcan0 0CF00400#F0FFA3063900FFFF
(1700000025.580000) vcan0 0CF00400#F0FFA30F3900FFFF
(1700000025.600000) vcan0 0CF00400#F0FFA3183900FFFF
(1700000025.600000) vcan0 18FEF100#FF765AFFFFFFFFFF
(1700000025.620000) vcan0 0CF00400#F0FFA3203900FFFF
(1700000025.640000) vcan0 0CF00400#F0FFA3293900FFFF
(1700000025.660000) vcan0 0CF00400#F0FFA3313900FFFF
(1700000025.680000) vcan0 0CF00400#F0FFA3393900FFFF
(1700000025.700000) vcan0 0CF00400#F0FFA3413900FFFF
(1700000025.700000) vcan0 18FEF100#FF8F5AFFFFFFFFFF
(1700000025.720000) vcan0 0CF00400#F0FFA3493900FFFF
(1700000025.740000) vcan0 0CF00400#F0FFA3513900FFFF
(1700000025.760000) vcan0 0CF00400#F0FFA3593900FFFF
(1700000025.780000) vcan0 0CF00400#F0FFA3613900FFFF
(1700000025.800000) vcan0 0CF00400#F0FFA3693900FFFF
(1700000025.800000) vcan0 18FEF100#FFA75AFFFFFFFFFF
(1700000025.820000) vcan0 0CF00400#F0FFA3703900FFFF
(1700000025.840000) vcan0 0CF00400#F0FFA3773900FFFF
(1700000025.860000) vcan0 0CF00400#F0FFA37F3900FFFF
(1700000025.880000) vcan0 0CF00400#F0FFA3863900FFFF
(1700000025.900000) vcan0 0CF00400#F0FFA38D3900FFFF
(1700000025.900000) vcan0 18FEF100#FFBF5AFFFFFFFFFF
(1700000025.920000) vcan0 0CF00400#F0FFA3943900FFFF
(1700000025.940000) vcan0 0CF00400#F0FFA39A3900FFFF
(1700000025.960000) vcan0 0CF00400#F0FFA3A13900FFFF
(1700000025.980000) vcan0 0CF00400#F0FFA3A73900FFFF
(1700000026.000000) vcan0 0CF00400#F0FFA3AE3900FFFF
(1700000026.000000) vcan0 18FEF100#FFD75AFFFFFFFFFF
(1700000026.000000) vcan0 18FEEE00#92FFA030FFFFFFFF
(1700000026.020000) vcan0 0CF00400#F0FFA3B43900FFFF
(1700000026.040000) vcan0 0CF00400#F0FFA3BA3900FFFF
(1700000026.060000) vcan0 0CF00400#F0FFA3BF3900FFFF
(1700000026.080000) vcan0 0CF00400#F0FFA3C53900FFFF
(1700000026.100000) vcan0 0CF00400#F0FFA3CB3900FFFF
(1700000026.100000) vcan0 18FEF100#FFEE5AFFFFFFFFFF
(1700000026.120000) vcan0 0CF00400#F0FFA3D03900FFFF
(1700000026.140000) vcan0 0CF00400#F0FFA3D53900FFFF
(1700000026.160000) vcan0 0CF00400#F0FFA3DA3900FFFF
(1700000026.180000) vcan0 0CF00400#F0FFA3DF3900FFFF
(1700000026.200000) vcan0 0CF00400#F0FFA3E43900FFFF
(1700000026.200000) vcan0 18FEF100#FF045BFFFFFFFFFF
(1700000026.220000) vcan0 0CF00400#F0FFA3E83900FFFF
(1700000026.240000) vcan0 0CF00400#F0FFA3ED3900FFFF
(1700000026.260000) vcan0 0CF00400#F0FFA3F13900FFFF
(1700000026.280000) vcan0 0CF00400#F0FFA3F53900FFFF
(1700000026.300000) vcan0 0CF00400#F0FFA3F93900FFFF
(1700000026.300000) vcan0 18FEF100#FF1A5BFFFFFFFFFF
(1700000026.320000) vcan0 0CF00400#F0FFA3FD3900FFFF
(1700000026.340000) vcan0 0CF00400#F0FFA3003A00FFFF
(1700000026.360000) vcan0 0CF00400#F0FFA3033A00FFFF
(1700000026.380000) vcan0 0CF00400#F0FFA3073A00FFFF
(1700000026.400000) vcan0 0CF00400#F0FFA30A3A00FFFF
(1700000026.400000) vcan0 18FEF100#FF2F5BFFFFFFFFFF
(1700000026.420000) vcan0 0CF00400#F0FFA30C3A00FFFF
(1700000026.440000) vcan0 0CF00400#F0FFA30F3A00FFFF
(1700000026.460000) vcan0 0CF00400#F0FFA3113A00FFFF
(1700000026.480000) vcan0 0CF00400#F0FFA3143A00FFFF
(1700000026.500000) vcan0 0CF00400#F0FFA3163A00FFFF
(1700000026.500000) vcan0 18FEF100#FF435BFFFFFFFFFF
(1700000026.500000) vcan0 18FECA00#00FF00000000FFFF
(1700000026.520000) vcan0 0CF00400#F0FFA3173A00FFFF
(1700000026.540000) vcan0 0CF00400#F0FFA3193A00FFFF
(1700000026.560000) vcan0 0CF00400#F0FFA31B3A00FFFF
(1700000026.580000) vcan0 0CF00400#F0FFA31C3A00FFFF
(1700000026.600000) vcan0 0CF00400#F0FFA31D3A00FFFF
(1700000026.600000) vcan0 18FEF100#FF565BFFFFFFFFFF
(1700000026.620000) vcan0 0CF00400#F0FFA31E3A00FFFF
(1700000026.640000) vcan0 0CF00400#F0FFA31F3A00FFFF
(1700000026.660000) vcan0 0CF00400#F0FFA31F3A00FFFF
(1700000026.680000) vcan0 0CF00400#F0FFA31F3A00FFFF
(1700000026.700000) vcan0 0CF00400#F0FFA31F3A00FFFF
(1700000026.700000) vcan0 18FEF100#FF695BFFFFFFFFFF
(1700000026.720000) vcan0 0CF00400#F0FFA31F3A00FFFF
(1700000026.740000) vcan0 0CF00400#F0FFA31F3A00FFFF
(1700000026.760000) vcan0 0CF00400#F0FFA31F3A00FFFF
(1700000026.780000) vcan0 0CF00400#F0FFA31E3A00FFFF
(1700000026.800000) vcan0 0CF00400#F0FFA31D3A00FFFF
(1700000026.800000) vcan0 18FEF100#FF7B5BFFFFFFFFFF
(1700000026.820000) vcan0 0CF00400#F0FFA31C3A00FFFF
(1700000026.840000) vcan0 0CF00400#F0FFA31B3A00FFFF
(1700000026.860000) vcan0 0CF00400#F0FFA31A3A00FFFF
(1700000026.880000) vcan0 0CF00400#F0FFA3183A00FFFF
(1700000026.900000) vcan0 0CF00400#F0FFA3163A00FFFF
(1700000026.900000) vcan0 18FEF100#FF8B5BFFFFFFFFFF
(1700000026.920000) vcan0 0CF00400#F0FFA3143A00FFFF
(1700000026.940000) vcan0 0CF00400#F0FFA3123A00FFFF
(1700000026.960000) vcan0 0CF00400#F0FFA3103A00FFFF
(1700000026.980000) vcan0 0CF00400#F0FFA30D3A00FFFF
(1700000027.000000) vcan0 0CF00400#F0FFA30B3A00FFFF
(1700000027.000000) vcan0 18FEF100#FF9B5BFFFFFFFFFF
(1700000027.000000) vcan0 18FEEE00#94FFE030FFFFFFFF
(1700000027.020000) vcan0 0CF00400#F0FFA3083A00FFFF
(1700000027.040000) vcan0 0CF00400#F0FFA3053A00FFFF
(1700000027.060000) vcan0 0CF00400#F0FFA3013A00FFFF
(1700000027.080000) vcan0 0CF00400#F0FFA3FE3900FFFF
(1700000027.100000) vcan0 0CF00400#F0FFA3FA3900FFFF
(1700000027.100000) vcan0 18FEF100#FFAA5BFFFFFFFFFF
(1700000027.120000) vcan0 0CF00400#F0FFA3F63900FFFF
(1700000027.140000) vcan0 0CF00400#F0FFA3F33900FFFF
(1700000027.160000) vcan0 0CF00400#F0FFA3EE3900FFFF
(1700000027.180000) vcan0 0CF00400#F0FFA3EA3900FFFF
(1700000027.200000) vcan0 0CF00400#F0FFA3E63900FFFF
(1700000027.200000) vcan0 18FEF100#FFB75BFFFFFFFFFF
(1700000027.220000) vcan0 0CF00400#F0FFA3E13900FFFF
(1700000027.240000) vcan0 0CF00400#F0FFA3DC3900FFFF
(1700000027.260000) vcan0 0CF00400#F0FFA3D73900FFFF
(1700000027.280000) vcan0 0CF00400#F0FFA3D23900FFFF
(1700000027.300000) vcan0 0CF00400#F0FFA3CD3900FFFF
(1700000027.300000) vcan0 18FEF100#FFC45BFFFFFFFFFF
(1700000027.320000) vcan0 0CF00400#F0FFA3C73900FFFF
(1700000027.340000) vcan0 0CF00400#F0FFA3C23900FFFF
(1700000027.360000) vcan0 0CF00400#F0FFA3BC3900FFFF
(1700000027.380000) vcan0 0CF00400#F0FFA3B63900FFFF
(1700000027.400000) vcan0 0CF00400#F0FFA3B03900FFFF
(1700000027.400000) vcan0 18FEF100#FFCF5BFFFFFFFFFF
(1700000027.420000) vcan0 0CF00400#F0FFA3A93900FFFF
(1700000027.440000) vcan0 0CF00400#F0FFA3A33900FFFF
(1700000027.460000) vcan0 0CF00400#F0FFA39D3900FFFF
(1700000027.480000) vcan0 0CF00400#F0FFA3963900FFFF
(1700000027.500000) vcan0 0CF00400#F0FFA38F3900FFFF
(1700000027.500000) vcan0 18FEF100#FFDA5BFFFFFFFFFF
(1700000027.500000) vcan0 18FECA00#00FF00000000FFFF
(1700000027.520000) vcan0 0CF00400#F0FFA3883900FFFF
(1700000027.540000) vcan0 0CF00400#F0FFA3813900FFFF
(1700000027.560000) vcan0 0CF00400#F0FFA37A3900FFFF
(1700000027.580000) vcan0 0CF00400#F0FFA3733900FFFF
(1700000027.600000) vcan0 0CF00400#F0FFA36B3900FFFF
(1700000027.600000) vcan0 18FEF100#FFE35BFFFFFFFFFF
(1700000027.620000) vcan0 0CF00400#F0FFA3643900FFFF
(1700000027.640000) vcan0 0CF00400#F0FFA35C3900FFFF
(1700000027.660000) vcan0 0CF00400#F0FFA3543900FFFF
(1700000027.680000) vcan0 0CF00400#F0FFA34C3900FFFF
(1700000027.700000) vcan0 0CF00400#F0FFA3443900FFFF
(1700000027.700000) vcan0 18FEF100#FFEB5BFFFFFFFFFF
(1700000027.720000) vcan0 0CF00400#F0FFA33C3900FFFF
(1700000027.740000) vcan0 0CF00400#F0FFA3343900FFFF
(1700000027.760000) vcan0 0CF00400#F0FFA32C3900FFFF
(1700000027.780000) vcan0 0CF00400#F0FFA3233900FFFF
(1700000027.800000) vcan0 0CF00400#F0FFA31B3900FFFF
(1700000027.800000) vcan0 18FEF100#FFF15BFFFFFFFFFF
(1700000027.820000) vcan0 0CF00400#F0FFA3123900FFFF
(1700000027.840000) vcan0 0CF00400#F0FFA3093900FFFF
(1700000027.860000) vcan0 0CF00400#F0FFA3013900FFFF
(1700000027.880000) vcan0 0CF00400#F0FFA3F83800FFFF
(1700000027.900000) vcan0 0CF00400#F0FFA3EF3800FFFF
(1700000027.900000) vcan0 18FEF100#FFF75BFFFFFFFFFF
(1700000027.920000) vcan0 0CF00400#F0FFA3E63800FFFF
(1700000027.940000) vcan0 0CF00400#F0FFA3DD3800FFFF
(1700000027.960000) vcan0 0CF00400#F0FFA3D43800FFFF
(1700000027.980000) vcan0 0CF00400#F0FFA3CB3800FFFF
(1700000028.000000) vcan0 0CF00400#F0FFA3C23800FFFF
(1700000028.000000) vcan0 18FEF100#FFFB5BFFFFFFFFFF
(1700000028.000000) vcan0 18FEEE00#96FF2031FFFFFFFF
(1700000028.020000) vcan0 0CF00400#F0FFA3B83800FFFF
(1700000028.040000) vcan0 0CF00400#F0FFA3AF3800FFFF
(1700000028.060000) vcan0 0CF00400#F0FFA3A63800FFFF
(1700000028.080000) vcan0 0CF00400#F0FFA39C3800FFFF
(1700000028.100000) vcan0 0CF00400#F0FFA3933800FFFF
(1700000028.100000) vcan0 18FEF100#FFFE5BFFFFFFFFFF
(1700000028.120000) vcan0 0CF00400#F0FFA3893800FFFF
(1700000028.140000) vcan0 0CF00400#F0FFA3803800FFFF
(1700000028.160000) vcan0 0CF00400#F0FFA3763800FFFF
(1700000028.180000) vcan0 0CF00400#F0FFA36D3800FFFF
(1700000028.200000) vcan0 0CF00400#F0FFA3633800FFFF
(1700000028.200000) vcan0 18FEF100#FFFF5BFFFFFFFFFF
(1700000028.220000) vcan0 0CF00400#F0FFA35A3800FFFF
(1700000028.240000) vcan0 0CF00400#F0FFA3503800FFFF
(1700000028.260000) vcan0 0CF00400#F0FFA3463800FFFF
(1700000028.280000) vcan0 0CF00400#F0FFA23D3800FFFF
(1700000028.300000) vcan0 0CF00400#F0FFA2333800FFFF
(1700000028.300000) vcan0 18FEF100#FFFF5BFFFFFFFFFF
(1700000028.320000) vcan0 0CF00400#F0FFA22A3800FFFF
(1700000028.340000) vcan0 0CF00400#F0FFA2203800FFFF
(1700000028.360000) vcan0 0CF00400#F0FFA2163800FFFF
(1700000028.380000) vcan0 0CF00400#F0FFA20D3800FFFF
(1700000028.400000) vcan0 0CF00400#F0FFA2033800FFFF
(1700000028.400000) vcan0 18FEF100#FFFE5BFFFFFFFFFF
(1700000028.420000) vcan0 0CF00400#F0FFA2FA3700FFFF
(1700000028.440000) vcan0 0CF00400#F0FFA2F03700FFFF
(1700000028.460000) vcan0 0CF00400#F0FFA2E73700FFFF
(1700000028.480000) vcan0 0CF00400#F0FFA2DD3700FFFF
(1700000028.500000) vcan0 0CF00400#F0FFA2D43700FFFF
(1700000028.500000) vcan0 18FEF100#FFFC5BFFFFFFFFFF
(1700000028.500000) vcan0 1CECFF00#200A0002FFCAFE00
(1700000028.520000) vcan0 0CF00400#F0FFA2CB3700FFFF
(1700000028.540000) vcan0 0CF00400#F0FFA2C13700FFFF
(1700000028.550000) vcan0 1CEBFF00#0114FF6E000001AF
(1700000028.560000) vcan0 0CF00400#F0FFA2B83700FFFF
(1700000028.580000) vcan0 0CF00400#F0FFA2AF3700FFFF
(1700000028.600000) vcan0 0CF00400#F0FFA2A63700FFFF
(1700000028.600000) vcan0 18FEF100#FFF95BFFFFFFFFFF
(1700000028.600000) vcan0 1CEBFF00#02001001FFFFFFFF
(1700000028.620000) vcan0 0CF00400#F0FFA29D3700FFFF
(1700000028.640000) vcan0 0CF00400#F0FFA2943700FFFF
(1700000028.660000) vcan0 0CF00400#F0FFA28B3700FFFF
(1700000028.680000) vcan0 0CF00400#F0FFA2823700FFFF
(1700000028.700000) vcan0 0CF00400#F0FFA2793700FFFF
(1700000028.700000) vcan0 18FEF100#FFF45BFFFFFFFFFF
(1700000028.720000) vcan0 0CF00400#F0FFA2713700FFFF
(1700000028.740000) vcan0 0CF00400#F0FFA2683700FFFF
(1700000028.760000) vcan0 0CF00400#F0FFA25F3700FFFF
(1700000028.780000) vcan0 0CF00400#F0FFA2573700FFFF
(1700000028.800000) vcan0 0CF00400#F0FFA24F3700FFFF
(1700000028.800000) vcan0 18FEF100#FFEE5BFFFFFFFFFF
(1700000028.820000) vcan0 0CF00400#F0FFA2463700FFFF
(1700000028.840000) vcan0 0CF00400#F0FFA23E3700FFFF
(1700000028.860000) vcan0 0CF00400#F0FFA2363700FFFF
(1700000028.880000) vcan0 0CF00400#F0FFA22E3700FFFF
(1700000028.900000) vcan0 0CF00400#F0FFA2263700FFFF
(1700000028.900000) vcan0 18FEF100#FFE75BFFFFFFFFFF
(1700000028.920000) vcan0 0CF00400#F0FFA21F3700FFFF
(1700000028.940000) vcan0 0CF00400#F0FFA2173700FFFF
(1700000028.960000) vcan0 0CF00400#F0FFA2103700FFFF
(1700000028.980000) vcan0 0CF00400#F0FFA2083700FFFF
(1700000029.000000) vcan0 0CF00400#F0FFA2013700FFFF
(1700000029.000000) vcan0 18FEF100#FFDE5BFFFFFFFFFF
(1700000029.000000) vcan0 18FEEE00#98FF6031FFFFFFFF
(1700000029.020000) vcan0 0CF00400#F0FFA2FA3600FFFF
(1700000029.040000) vcan0 0CF00400#F0FFA2F33600FFFF
(1700000029.060000) vcan0 0CF00400#F0FFA2EC3600FFFF
(1700000029.080000) vcan0 0CF00400#F0FFA2E53600FFFF
(1700000029.100000) vcan0 0CF00400#F0FFA2DF3600FFFF
(1700000029.100000) vcan0 18FEF100#FFD45BFFFFFFFFFF
(1700000029.120000) vcan0 0CF00400#F0FFA2D83600FFFF
(1700000029.140000) vcan0 0CF00400#F0FFA2D23600FFFF
(1700000029.160000) vcan0 0CF00400#F0FFA2CC3600FFFF
(1700000029.180000) vcan0 0CF00400#F0FFA2C63600FFFF
(1700000029.200000) vcan0 0CF00400#F0FFA2C03600FFFF
(1700000029.200000) vcan0 18FEF100#FFCA5BFFFFFFFFFF
(1700000029.220000) vcan0 0CF00400#F0FFA2BA3600FFFF
(1700000029.240000) vcan0 0CF00400#F0FFA2B53600FFFF
(1700000029.260000) vcan0 0CF00400#F0FFA2AF3600FFFF
(1700000029.280000) vcan0 0CF00400#F0FFA2AA3600FFFF
(1700000029.300000) vcan0 0CF00400#F0FFA2A53600FFFF
(1700000029.300000) vcan0 18FEF100#FFBE5BFFFFFFFFFF
(1700000029.320000) vcan0 0CF00400#F0FFA2A03600FFFF
(1700000029.340000) vcan0 0CF00400#F0FFA29B3600FFFF
(1700000029.360000) vcan0 0CF00400#F0FFA2973600FFFF
(1700000029.380000) vcan0 0CF00400#F0FFA2923600FFFF
(1700000029.400000) vcan0 0CF00400#F0FFA28E3600FFFF
(1700000029.400000) vcan0 18FEF100#FFB15BFFFFFFFFFF
(1700000029.420000) vcan0 0CF00400#F0FFA28A3600FFFF
(1700000029.440000) vcan0 0CF00400#F0FFA2863600FFFF
(1700000029.460000) vcan0 0CF00400#F0FFA2833600FFFF
(1700000029.480000) vcan0 0CF00400#F0FFA27F3600FFFF
(1700000029.500000) vcan0 0CF00400#F0FFA27C3600FFFF
(1700000029.500000) vcan0 18FEF100#FFA25BFFFFFFFFFF
(1700000029.500000) vcan0 1CECFF00#200A0002FFCAFE00
(1700000029.520000) vcan0 0CF00400#F0FFA2793600FFFF
(1700000029.540000) vcan0 0CF00400#F0FFA2763600FFFF
(1700000029.550000) vcan0 1CEBFF00#0114FF6E000001AF
(1700000029.560000) vcan0 0CF00400#F0FFA2733600FFFF
(1700000029.580000) vcan0 0CF00400#F0FFA2703600FFFF
(1700000029.600000) vcan0 0CF00400#F0FFA26E3600FFFF
(1700000029.600000) vcan0 18FEF100#FF935BFFFFFFFFFF
(1700000029.600000) vcan0 1CEBFF00#02001001FFFFFFFF
(1700000029.620000) vcan0 0CF00400#F0FFA26C3600FFFF
(1700000029.640000) vcan0 0CF00400#F0FFA26A3600FFFF
(1700000029.660000) vcan0 0CF00400#F0FFA2683600FFFF
(1700000029.680000) vcan0 0CF00400#F0FFA2663600FFFF
(1700000029.700000) vcan0 0CF00400#F0FFA2653600FFFF
(1700000029.700000) vcan0 18FEF100#FF835BFFFFFFFFFF
(1700000029.720000) vcan0 0CF00400#F0FFA2633600FFFF
(1700000029.740000) vcan0 0CF00400#F0FFA2623600FFFF
(1700000029.760000) vcan0 0CF00400#F0FFA2613600FFFF
(1700000029.780000) vcan0 0CF00400#F0FFA2613600FFFF
(1700000029.800000) vcan0 0CF00400#F0FFA2603600FFFF
(1700000029.800000) vcan0 18FEF100#FF725BFFFFFFFFFF
(1700000029.820000) vcan0 0CF00400#F0FFA2603600FFFF
(1700000029.840000) vcan0 0CF00400#F0FFA2603600FFFF
(1700000029.860000) vcan0 0CF00400#F0FFA2603600FFFF
(1700000029.880000) vcan0 0CF00400#F0FFA2603600FFFF
(1700000029.900000) vcan0 0CF00400#F0FFA2603600FFFF
(1700000029.900000) vcan0 18FEF100#FF5F5BFFFFFFFFFF
(1700000029.920000) vcan0 0CF00400#F0FFA2613600FFFF
(1700000029.940000) vcan0 0CF00400#F0FFA2623600FFFF
(1700000029.960000) vcan0 0CF00400#F0FFA2633600FFFF
(1700000029.980000) vcan0 0CF00400#F0FFA2643600FFFF
(1700000030.000000) vcan0 0CF00400#F0FFA2653600FFFF
(1700000030.000000) vcan0 18FEF100#FF4C5BFFFFFFFFFF
(1700000030.000000) vcan0 18FEEE00#98FF6031FFFFFFFF
(1700000030.020000) vcan0 0CF00400#F0FFA2673600FFFF
(1700000030.040000) vcan0 0CF00400#F0FFA2693600FFFF
(1700000030.060000) vcan0 0CF00400#F0FFA26B3600FFFF
(1700000030.080000) vcan0 0CF00400#F0FFA26D3600FFFF
(1700000030.100000) vcan0 0CF00400#F0FFA26F3600FFFF
(1700000030.100000) vcan0 18FEF100#FF395BFFFFFFFFFF
(1700000030.120000) vcan0 0CF00400#F0FFA2723600FFFF
(1700000030.140000) vcan0 0CF00400#F0FFA2743600FFFF
(1700000030.160000) vcan0 0CF00400#F0FFA2773600FFFF
(1700000030.180000) vcan0 0CF00400#F0FFA27A3600FFFF
(1700000030.200000) vcan0 0CF00400#F0FFA27D3600FFFF
(1700000030.200000) vcan0 18FEF100#FF245BFFFFFFFFFF
(1700000030.220000) vcan0 0CF00400#F0FFA2813600FFFF
(1700000030.240000) vcan0 0CF00400#F0FFA2843600FFFF
(1700000030.260000) vcan0 0CF00400#F0FFA2883600FFFF
(1700000030.280000) vcan0 0CF00400#F0FFA28C3600FFFF
(1700000030.300000) vcan0 0CF00400#F0FFA2903600FFFF
(1700000030.300000) vcan0 18FEF100#FF0F5BFFFFFFFFFF
(1700000030.320000) vcan0 0CF00400#F0FFA2953600FFFF
(1700000030.340000) vcan0 0CF00400#F0FFA2993600FFFF
(1700000030.360000) vcan0 0CF00400#F0FFA29E3600FFFF
(1700000030.380000) vcan0 0CF00400#F0FFA2A33600FFFF
(1700000030.400000) vcan0 0CF00400#F0FFA2A83600FFFF
(1700000030.400000) vcan0 18FEF100#FFF95AFFFFFFFFFF
(1700000030.420000) vcan0 0CF00400#F0FFA2AD3600FFFF
(1700000030.440000) vcan0 0CF00400#F0FFA2B23600FFFF
(1700000030.460000) vcan0 0CF00400#F0FFA2B73600FFFF
(1700000030.480000) vcan0 0CF00400#F0FFA2BD3600FFFF
(1700000030.500000) vcan0 0CF00400#F0FFA2C33600FFFF
(1700000030.500000) vcan0 18FEF100#FFE25AFFFFFFFFFF
(1700000030.500000) vcan0 1CECFF00#200A0002FFCAFE00
(1700000030.520000) vcan0 0CF00400#F0FFA2C93600FFFF
(1700000030.540000) vcan0 0CF00400#F0FFA2CF3600FFFF
(1700000030.550000) vcan0 1CEBFF00#0114FF6E000001AF
(1700000030.560000) vcan0 0CF00400#F0FFA2D53600FFFF
(1700000030.580000) vcan0 0CF00400#F0FFA2DB3600FFFF
(1700000030.600000) vcan0 0CF00400#F0FFA2E23600FFFF
(1700000030.600000) vcan0 18FEF100#FFCB5AFFFFFFFFFF
(1700000030.600000) vcan0 1CEBFF00#02001001FFFFFFFF
(1700000030.620000) vcan0 0CF00400#F0FFA2E93600FFFF
(1700000030.640000) vcan0 0CF00400#F0FFA2EF3600FFFF
(1700000030.660000) vcan0 0CF00400#F0FFA2F63600FFFF
(1700000030.680000) vcan0 0CF00400#F0FFA2FD3600FFFF
(1700000030.700000) vcan0 0CF00400#F0FFA2043700FFFF
(1700000030.700000) vcan0 18FEF100#FFB35AFFFFFFFFFF
(1700000030.720000) vcan0 0CF00400#F0FFA20C3700FFFF
(1700000030.740000) vcan0 0CF00400#F0FFA2133700FFFF
(1700000030.760000) vcan0 0CF00400#F0FFA21B3700FFFF
(1700000030.780000) vcan0 0CF00400#F0FFA2223700FFFF
(1700000030.800000) vcan0 0CF00400#F0FFA22A3700FFFF
(1700000030.800000) vcan0 18FEF100#FF9B5AFFFFFFFFFF
(1700000030.820000) vcan0 0CF00400#F0FFA2323700FFFF
(1700000030.840000) vcan0 0CF00400#F0FFA23A3700FFFF
(1700000030.860000) vcan0 0CF00400#F0FFA2423700FFFF
(1700000030.880000) vcan0 0CF00400#F0FFA24A3700FFFF
(1700000030.900000) vcan0 0CF00400#F0FFA2533700FFFF
